(1763034490.245860) can0 1200AA01#16700000ADD99440
(1763034490.245970) can0 1200AA02#16700000061FF23F
(1763034490.246437) can0 028001AA#AF5F80387E1A00FA
(1763034490.246753) can0 028002AA#9346806680610104
(1763034490.303003) can0 1200AA01#16700000ADD99440
(1763034490.303129) can0 1200AA02#16700000061FF23F
(1763034490.303537) can0 028001AA#AF5F7FDE7CF700FA
(1763034490.303813) can0 028002AA#934580577FC80104
(1763034492.098432) can0 1200AA01#167000004CE59440
(1763034492.098625) can0 1200AA02#16700000824DF23F
(1763034492.098961) can0 028001AA#AF5D80377D0E00FA
(1763034492.099291) can0 028002AA#93427FD680BD0104
(1763034492.139893) can0 1200AA01#167000009E079540
(1763034492.140014) can0 1200AA02#16700000CCD6F23F
(1763034492.140572) can0 028001AA#AF5E80507F0500FA
(1763034492.140701) can0 028002AA#93437FF682460104
(1763034492.181613) can0 1200AA01#16700000D43F9540
(1763034492.181678) can0 1200AA02#16700000A4B7F33F
(1763034492.182237) can0 028001AA#AF64804D7DC300FA
(1763034492.182333) can0 028002AA#9349805281AB0104
(1763034492.223277) can0 1200AA01#167000001F8D9540
(1763034492.223483) can0 1200AA02#16700000CEECF43F
(1763034492.223971) can0 028001AA#AF6F80A7803B00FA
(1763034492.224097) can0 028002AA#9353804182C00104
(1763034492.264862) can0 1200AA01#16700000AEEE9540
(1763034492.265111) can0 1200AA02#167000000A73F63F
(1763034492.265524) can0 028001AA#AF8080987FC400FA
(1763034492.265683) can0 028002AA#936580B882080104
(1763034492.306483) can0 1200AA01#16700000B2639640
(1763034492.306555) can0 1200AA02#167000001C47F83F
(1763034492.307163) can0 028001AA#AF9380F4829900FA
(1763034492.307301) can0 028002AA#937D80EF80EA0104
(1763034492.348165) can0 1200AA01#167000005CEB9640
(1763034492.348393) can0 1200AA02#16700000C465FA3F
(1763034492.348881) can0 028001AA#AFB28177831F00FA
(1763034492.349045) can0 028002AA#939E811B7F710104
(1763034492.389827) can0 1200AA01#16700000DC849740
(1763034492.389936) can0 1200AA02#16700000C4CBFC3F
(1763034492.390523) can0 028001AA#AFD580F0815A00FA
(1763034492.390594) can0 028002AA#93C1808A81950104
(1763034492.431613) can0 1200AA01#16700000632F9840
(1763034492.431618) can0 1200AA02#16700000E075FF3F
(1763034492.432204) can0 028001AA#B00481007D9500FA
(1763034492.432401) can0 028002AA#93E9811D823C0104
(1763034492.473238) can0 1200AA01#1670000021EA9840
(1763034492.473301) can0 1200AA02#167000006B300140
(1763034492.473856) can0 028001AA#B02F80D0830600FA
(1763034492.474015) can0 028002AA#941581527EE40104
(1763034492.514887) can0 1200AA01#1670000046B49940
(1763034492.515038) can0 1200AA02#16700000B5C40240
(1763034492.515526) can0 028001AA#B0618167810600FA
(1763034492.515693) can0 028002AA#944C82307ED20104
(1763034492.556250) can0 1200AA01#16700000038D9A40
(1763034492.556251) can0 1200AA02#167000002F760440
(1763034492.556863) can0 028001AA#B09C81967FA100FA
(1763034492.556990) can0 028002AA#9482818480E20104
(1763034492.597788) can0 1200AA01#1670000088739B40
(1763034492.598013) can0 1200AA02#167000003A430640
(1763034492.598491) can0 028001AA#B0D7812E812600FA
(1763034492.598649) can0 028002AA#94BE81727FB10104
(1763034492.639876) can0 1200AA01#1670000006679C40
(1763034492.639982) can0 1200AA02#16700000362A0840
(1763034492.640568) can0 028001AA#B11981C57F2800FA
(1763034492.640640) can0 028002AA#950081E581CE0104
(1763034492.681557) can0 1200AA01#16700000AE669D40
(1763034492.681610) can0 1200AA02#1670000085290A40
(1763034492.682217) can0 028001AA#B15E81E3833900FA
(1763034492.682362) can0 028002AA#954481E781890104
(1763034492.723194) can0 1200AA01#16700000AF719E40
(1763034492.723299) can0 1200AA02#16700000873F0C40
(1763034492.723868) can0 028001AA#B1A581D0819600FA
(1763034492.724022) can0 028002AA#9590824981C90104
(1763034492.764878) can0 1200AA01#167000003A879F40
(1763034492.765084) can0 1200AA02#167000009E6A0E40
(1763034492.765572) can0 028001AA#B1F481D8839400FA
(1763034492.765728) can0 028002AA#95DA824281BE0104
(1763034492.806479) can0 1200AA01#1670000080A6A040
(1763034492.806608) can0 1200AA02#167000002AA91040
(1763034492.807176) can0 028001AA#B24482787E2800FA
(1763034492.807334) can0 028002AA#962A8235805D0104
(1763034492.848233) can0 1200AA01#16700000B1CEA140
(1763034492.848290) can0 1200AA02#167000008CF91240
(1763034492.848844) can0 028001AA#B299825A81F700FA
(1763034492.849027) can0 028002AA#967D827880EF0104
(1763034492.889869) can0 1200AA01#16700000FDFEA240
(1763034492.889985) can0 1200AA02#16700000235A1540
(1763034492.890525) can0 028001AA#B2F0820580B800FA
(1763034492.890672) can0 028002AA#96D6825D808D0104
(1763034492.931467) can0 1200AA01#167000009636A440
(1763034492.931705) can0 1200AA02#1670000055C91740
(1763034492.932180) can0 028001AA#B3498215835500FA
(1763034492.932347) can0 028002AA#972E83137F4D0104
(1763034492.973243) can0 1200AA01#16700000AB74A540
(1763034492.973270) can0 1200AA02#167000007F451A40
(1763034492.973864) can0 028001AA#B3A88276821100FA
(1763034492.974033) can0 028002AA#978C826880960104
(1763034493.014855) can0 1200AA01#167000006CB8A640
(1763034493.014966) can0 1200AA02#1670000002CD1C40
(1763034493.015566) can0 028001AA#B4048262808400FA
(1763034493.015643) can0 028002AA#97EA82FA826A0104
(1763034493.056482) can0 1200AA01#167000000C01A840
(1763034493.056597) can0 1200AA02#16700000405E1F40
(1763034493.057120) can0 028001AA#B4658274833E00FA
(1763034493.057287) can0 028002AA#984A8307816C0104
(1763034493.098215) can0 1200AA01#16700000B84DA940
(1763034493.098263) can0 1200AA02#1670000098F72140
(1763034493.098857) can0 028001AA#B4CA828580CA00FA
(1763034493.099024) can0 028002AA#98B1826880880104
(1763034493.139842) can0 1200AA01#16700000A39DAA40
(1763034493.139967) can0 1200AA02#167000006F972440
(1763034493.140533) can0 028001AA#B52E8329806600FA
(1763034493.140692) can0 028002AA#991582B081580104
(1763034493.181501) can0 1200AA01#16700000FCEFAB40
(1763034493.181733) can0 1200AA02#16700000223C2740
(1763034493.182209) can0 028001AA#B59682D282A700FA
(1763034493.182366) can0 028002AA#997B82EF81060104
(1763034493.223221) can0 1200AA01#16700000F643AD40
(1763034493.223283) can0 1200AA02#1670000014E42940
(1763034493.223849) can0 028001AA#B60082CC800600FA
(1763034493.224031) can0 028002AA#99E5822F80BA0104
(1763034493.264834) can0 1200AA01#16700000BD98AE40
(1763034493.265106) can0 1200AA02#16700000A38D2C40
(1763034493.265534) can0 028001AA#B6678373807700FA
(1763034493.265702) can0 028002AA#9A4F82AD81CA0104
(1763034493.306491) can0 1200AA01#1670000086EDAF40
(1763034493.306626) can0 1200AA02#1670000034372F40
(1763034493.307187) can0 028001AA#B6D2827E823500FA
(1763034493.307348) can0 028002AA#9AB8832D7E920104
(1763034493.348163) can0 1200AA01#167000007E41B140
(1763034493.348386) can0 1200AA02#1670000025DF3140
(1763034493.348863) can0 028001AA#B73F8284829A00FA
(1763034493.349021) can0 028002AA#9B22828680C70104
(1763034493.389818) can0 1200AA01#16700000D893B240
(1763034493.389934) can0 1200AA02#16700000D8833440
(1763034493.390485) can0 028001AA#B7AA837B7F2F00FA
(1763034493.390639) can0 028002AA#9B8F8311817C0104
(1763034493.431560) can0 1200AA01#16700000C2E3B340
(1763034493.431571) can0 1200AA02#16700000AE233740
(1763034493.432156) can0 028001AA#B814833781D700FA
(1763034493.432341) can0 028002AA#9BFB82E8809D0104
(1763034493.473398) can0 1200AA01#167000006F30B540
(1763034493.473561) can0 1200AA02#1670000007BD3940
(1763034493.474072) can0 028001AA#B88282FF816A00FA
(1763034493.474233) can0 028002AA#9C6682F382AA0104
(1763034493.514897) can0 1200AA01#167000000E79B640
(1763034493.514948) can0 1200AA02#16700000454E3C40
(1763034493.515431) can0 028001AA#B8EC82F97FF100FA
(1763034493.515643) can0 028002AA#9CD282ED81300104
(1763034493.556462) can0 1200AA01#16700000D0BCB740
(1763034493.556653) can0 1200AA02#16700000C8D53E40
(1763034493.557165) can0 028001AA#B95782DD804200FA
(1763034493.557326) can0 028002AA#9D3D82E380870104
(1763034493.598173) can0 1200AA01#16700000E4FAB840
(1763034493.598359) can0 1200AA02#16700000F2514140
(1763034493.598863) can0 028001AA#B9C182CB81CF00FA
(1763034493.599024) can0 028002AA#9DA6835780E30104
(1763034493.639858) can0 1200AA01#167000007C32BA40
(1763034493.639965) can0 1200AA02#1670000022C14340
(1763034493.640544) can0 028001AA#BA2C82B6822000FA
(1763034493.640644) can0 028002AA#9E10830282540104
(1763034493.681561) can0 1200AA01#16700000C962BB40
(1763034493.681572) can0 1200AA02#16700000BB214640
(1763034493.682207) can0 028001AA#BA93830F7E7000FA
(1763034493.682367) can0 028002AA#9E78828981030104
(1763034493.723193) can0 1200AA01#16700000FA8ABC40
(1763034493.723278) can0 1200AA02#167000001E724840
(1763034493.723857) can0 028001AA#BAF982AD832900FA
(1763034493.724028) can0 028002AA#9EDE83167F970104
(1763034493.764904) can0 1200AA01#1670000040AABD40
(1763034493.764907) can0 1200AA02#16700000A9B04A40
(1763034493.765512) can0 028001AA#BB5E826F81E000FA
(1763034493.765680) can0 028002AA#9F4282AE827C0104
(1763034493.806488) can0 1200AA01#16700000CCBFBE40
(1763034493.806627) can0 1200AA02#16700000C0DB4C40
(1763034493.807169) can0 028001AA#BBBE83297DB000FA
(1763034493.807363) can0 028002AA#9FA582C781DC0104
(1763034493.848219) can0 1200AA01#16700000CCCABF40
(1763034493.848373) can0 1200AA02#16700000C2F14E40
(1763034493.848882) can0 028001AA#BC1E8234823400FA
(1763034493.849035) can0 028002AA#A00382497FFA0104
(1763034493.889859) can0 1200AA01#1670000074CAC040
(1763034493.889939) can0 1200AA02#1670000010F15040
(1763034493.890504) can0 028001AA#BC7E8289805200FA
(1763034493.890665) can0 028002AA#A060824F81D10104
(1763034493.933569) can0 1200AA01#16700000F2BDC140
(1763034493.933625) can0 1200AA02#167000000ED85240
(1763034493.934193) can0 028001AA#BCD781CE814800FA
(1763034493.934340) can0 028002AA#A0BF825480D80104
(1763034493.973228) can0 1200AA01#1670000076A4C240
(1763034493.973575) can0 1200AA02#1670000016A55440
(1763034493.973715) can0 028001AA#BD2B824E82A100FA
(1763034493.974135) can0 028002AA#A11081DB81450104
(1763034494.015165) can0 1200AA01#16700000357DC340
(1763034494.015498) can0 1200AA02#1670000093565640
(1763034494.015766) can0 028001AA#BD7E82627E4600FA
(1763034494.016034) can0 028002AA#A163823C80AA0104
(1763034494.099941) can0 1200AA01#167000005A47C440
(1763034494.100147) can0 1200AA02#16700000DCEA5740
(1763034494.100657) can0 028001AA#BE0C816D807B00FA
(1763034494.100733) can0 028002AA#A1F5815980020104
(1763034494.140007) can0 1200AA01#167000001602C540
(1763034494.140109) can0 1200AA02#1670000056605940
(1763034494.140630) can0 028001AA#BE3580F07FD600FA
(1763034494.140818) can0 028002AA#A2188170821F0104
(1763034494.181510) can0 1200AA01#167000009DACC540
(1763034494.181589) can0 1200AA02#1670000063B55A40
(1763034494.182168) can0 028001AA#BE65819C818400FA
(1763034494.182281) can0 028002AA#A24A8133835F0104
(1763034494.223361) can0 1200AA01#167000001E46C640
(1763034494.223427) can0 1200AA02#1670000065E85B40
(1763034494.223971) can0 028001AA#BEA081FC809900FA
(1763034494.224126) can0 028002AA#A285810C815A0104
(1763034494.281071) can0 1200AA01#16700000C8CDC640
(1763034494.281293) can0 1200AA02#16700000B9F75C40
(1763034494.281801) can0 028001AA#BEED8134827A00FA
(1763034494.281956) can0 028002AA#A2D0811F82480104
(1763034494.314498) can0 1200AA01#16700000CC42C740
(1763034494.314561) can0 1200AA02#16700000C2E15D40
(1763034494.315135) can0 028001AA#BF0C8113832000FA
(1763034494.315321) can0 028002AA#A2F281CD80270104
(1763034494.364399) can0 1200AA01#167000005BA4C740
(1763034494.364584) can0 1200AA02#16700000E0A45E40
(1763034494.365098) can0 028001AA#BF45815B7EB800FA
(1763034494.365156) can0 028002AA#A32980F480DE0104
(1763034494.397827) can0 1200AA01#16700000A5F1C740
(1763034494.397853) can0 1200AA02#16700000743F5F40
(1763034494.398441) can0 028001AA#BF6380F8808E00FA
(1763034494.398607) can0 028002AA#A34780F37EDC0104
(1763034494.431559) can0 1200AA01#16700000DC29C840
(1763034494.431646) can0 1200AA02#16700000E2AF5F40
(1763034494.432220) can0 028001AA#BF7E809F828700FA
(1763034494.432399) can0 028002AA#A36380E481410104
(1763034494.473232) can0 1200AA01#167000002F4CC840
(1763034494.473382) can0 1200AA02#1670000088F45F40
(1763034494.473862) can0 028001AA#BF9B80D281AF00FA
(1763034494.474042) can0 028002AA#A38280A880E30104
(1763034494.514887) can0 1200AA01#16700000CD57C840
(1763034494.515347) can0 1200AA02#16700000C40B6040
(1763034494.515529) can0 028001AA#BFAD802B823300FA
(1763034494.515947) can0 028002AA#A39880327F560104
(1763034494.556713) can0 1200AA01#16700000D845C840
(1763034494.556887) can0 1200AA02#16700000DAE75F40
(1763034494.557375) can0 028001AA#BFB98074822500FA
(1763034494.557547) can0 028002AA#A3A17FBD806B0104
(1763034494.598437) can0 1200AA01#16700000B410C840
(1763034494.598441) can0 1200AA02#16700000917D5F40
(1763034494.599050) can0 028001AA#BFBB806B813400FA
(1763034494.599222) can0 028002AA#A3A27FF27EE20104
(1763034494.639938) can0 1200AA01#167000007AB9C740
(1763034494.640034) can0 1200AA02#167000001DCF5E40
(1763034494.640652) can0 028001AA#BFB67FF27FAC00FA
(1763034494.640751) can0 028002AA#A39E801F7CA50104
(1763034494.681527) can0 1200AA01#167000004441C740
(1763034494.681581) can0 1200AA02#16700000B0DE5D40
(1763034494.682138) can0 028001AA#BFA67F21812100FA
(1763034494.682359) can0 028002AA#A38D7EF47DE20104
(1763034494.723161) can0 1200AA01#167000002BA9C640
(1763034494.723297) can0 1200AA02#167000007FAE5C40
(1763034494.723844) can0 028001AA#BF8B7F347FF800FA
(1763034494.723934) can0 028002AA#A3717F2E7F3B0104
(1763034494.781005) can0 1200AA01#167000004AF2C540
(1763034494.781365) can0 1200AA02#16700000BC405B40
(1763034494.781482) can0 028001AA#BF5B7EB17D4100FA
(1763034494.781810) can0 028002AA#A33C7EFC7F790104
(1763034494.806494) can0 1200AA01#16700000B81DC540
(1763034494.806580) can0 1200AA02#1670000098975940
(1763034494.807109) can0 028001AA#BF497F197DED00FA
(1763034494.807300) can0 028002AA#A3287F247F8A0104
(1763034494.848279) can0 1200AA01#16700000902CC440
(1763034494.848347) can0 1200AA02#1670000049B55740
(1763034494.848893) can0 028001AA#BF1D7E5A7EC500FA
(1763034494.849055) can0 028002AA#A2FD7DF57EBA0104
(1763034494.889833) can0 1200AA01#16700000EC1FC340
(1763034494.890019) can0 1200AA02#16700000019C5540
(1763034494.890379) can0 028001AA#BED67DFB804100FA
(1763034494.890708) can0 028002AA#A2B97E187E860104
(1763034494.931490) can0 1200AA01#16700000E4F8C140
(1763034494.931623) can0 1200AA02#16700000F24D5340
(1763034494.932113) can0 028001AA#BE8D7DE0808800FA
(1763034494.932289) can0 028002AA#A2707DE97F250104
(1763034494.973347) can0 1200AA01#1670000093B8C040
(1763034494.973463) can0 1200AA02#167000004FCD5040
(1763034494.973985) can0 028001AA#BE3A7D907E1C00FA
(1763034494.974144) can0 028002AA#A2217DF97E420104
(1763034495.014838) can0 1200AA01#167000001260BF40
(1763034495.014959) can0 1200AA02#167000004C1C4E40
(1763034495.015467) can0 028001AA#BDE67D3081F900FA
(1763034495.015627) can0 028002AA#A1CB7DBB7E8E0104
(1763034495.056459) can0 1200AA01#1670000079F0BD40
(1763034495.056568) can0 1200AA02#167000001B3D4B40
(1763034495.057103) can0 028001AA#BD8A7E187D5D00FA
(1763034495.057213) can0 028002AA#A1707CF77F320104
(1763034495.098159) can0 1200AA01#16700000E36ABC40
(1763034495.098325) can0 1200AA02#16700000EF314840
(1763034495.098777) can0 028001AA#BD287CE47F0F00FA
(1763034495.098929) can0 028002AA#A10E7D7D81210104
(1763034495.139827) can0 1200AA01#167000006AD0BA40
(1763034495.139921) can0 1200AA02#16700000FCFC4440
(1763034495.140481) can0 028001AA#BCC07D207F7C00FA
(1763034495.140633) can0 028002AA#A0A47D3B7E310104
(1763034495.181458) can0 1200AA01#167000002522B940
(1763034495.181649) can0 1200AA02#1670000073A04140
(1763034495.182136) can0 028001AA#BC527D3D7C4700FA
(1763034495.182295) can0 028002AA#A0337CBF7E620104
(1763034495.223336) can0 1200AA01#167000003061B740
(1763034495.223455) can0 1200AA02#16700000891E3E40
(1763034495.223969) can0 028001AA#BBD97CA77F3800FA
(1763034495.224078) can0 028002AA#9FBD7CDB80440104
(1763034495.264862) can0 1200AA01#16700000A48EB540
(1763034495.264951) can0 1200AA02#1670000070793A40
(1763034495.265512) can0 028001AA#BB5F7C9D7F2000FA
(1763034495.265686) can0 028002AA#9F427BC47F920104
(1763034495.306485) can0 1200AA01#1670000098ABB340
(1763034495.306608) can0 1200AA02#167000005AB33640
(1763034495.307143) can0 028001AA#BADD7C85807900FA
(1763034495.307298) can0 028002AA#9EC27C6D7E6A0104
(1763034495.348228) can0 1200AA01#1670000029B9B140
(1763034495.348338) can0 1200AA02#167000007BCE3240
(1763034495.348867) can0 028001AA#BA577C517F5800FA
(1763034495.349026) can0 028002AA#9E3C7CE17E4F0104
(1763034495.389910) can0 1200AA01#167000006FB8AF40
(1763034495.390035) can0 1200AA02#1670000007CD2E40
(1763034495.390551) can0 028001AA#B9CB7C267FDA00FA
(1763034495.390703) can0 028002AA#9DAE7BE57E190104
(1763034495.431512) can0 1200AA01#1670000082AAAD40
(1763034495.431695) can0 1200AA02#167000002EB12A40
(1763034495.432189) can0 028001AA#B93A7BCB7EFD00FA
(1763034495.432342) can0 028002AA#9D1D7BCC7E7F0104
(1763034495.473313) can0 1200AA01#167000007E90AB40
(1763034495.473487) can0 1200AA02#16700000267D2640
(1763034495.473976) can0 028001AA#B8A47C1B7EAE00FA
(1763034495.474135) can0 028002AA#9C877BE67E080104
(1763034495.514862) can0 1200AA01#167000007C6BA940
(1763034495.514997) can0 1200AA02#1670000020332240
(1763034495.515522) can0 028001AA#B80A7B997F1800FA
(1763034495.515632) can0 028002AA#9BEF7BE97E770104
(1763034495.556480) can0 1200AA01#16700000943CA740
(1763034495.556594) can0 1200AA02#1670000050D51D40
(1763034495.557128) can0 028001AA#B76C7B98801E00FA
(1763034495.557301) can0 028002AA#9B507B7A7DA10104
(1763034495.598149) can0 1200AA01#16700000E004A540
(1763034495.598307) can0 1200AA02#16700000E8651940
(1763034495.598795) can0 028001AA#B6C97C03808B00FA
(1763034495.598950) can0 028002AA#9AAD7B9E7F050104
(1763034495.639835) can0 1200AA01#167000007AC5A240
(1763034495.640017) can0 1200AA02#167000001CE71440
(1763034495.640524) can0 028001AA#B6237B107FE100FA
(1763034495.640635) can0 028002AA#9A077BF37FA10104
(1763034495.681453) can0 1200AA01#167000007A7FA040
(1763034495.681562) can0 1200AA02#167000001E5B1040
(1763034495.682088) can0 028001AA#B5787AFA7E7600FA
(1763034495.682201) can0 028002AA#995D7B677FF10104
(1763034495.723173) can0 1200AA01#16700000FC339E40
(1763034495.723334) can0 1200AA02#1670000022C40B40
(1763034495.723833) can0 028001AA#B4CA7AE87EC400FA
(1763034495.723992) can0 028002AA#98B07B537F530104
(1763034495.764840) can0 1200AA01#1670000018E49B40
(1763034495.764958) can0 1200AA02#1670000059240740
(1763034495.765464) can0 028001AA#B41B7AF27E1900FA
(1763034495.765620) can0 028002AA#98027B007EE70104
(1763034495.806496) can0 1200AA01#16700000E8909940
(1763034495.806604) can0 1200AA02#16700000F97D0240
(1763034495.807129) can0 028001AA#B36A7B437D4000FA
(1763034495.807304) can0 028002AA#974E7B837F400104
(1763034495.848196) can0 1200AA01#16700000843B9740
(1763034495.848339) can0 1200AA02#1670000062A6FB3F
(1763034495.848842) can0 028001AA#B2B57AB97ECA00FA
(1763034495.848996) can0 028002AA#969B7B697E420104
(1763034495.889873) can0 1200AA01#1670000007E59440
(1763034495.890060) can0 1200AA02#167000006E4CF23F
(1763034495.890526) can0 028001AA#B1FE7AE1803F00FA
(1763034495.890685) can0 028002AA#95E47B447E770104
(1763034495.931505) can0 1200AA01#167000008A8E9240
(1763034495.931592) can0 1200AA02#167000007CF2E83F
(1763034495.932182) can0 028001AA#B1467B0C7EE700FA
(1763034495.932314) can0 028002AA#952B7AEE7FDF0104
(1763034495.973172) can0 1200AA01#1670000027399040
(1763034495.973334) can0 1200AA02#16700000EE9CDF3F
(1763034495.973796) can0 028001AA#B08E7B507D4500FA
(1763034495.973955) can0 028002AA#94747B2B7E0E0104
(1763034496.014864) can0 1200AA01#16700000F6E58D40
(1763034496.015041) can0 1200AA02#167000002A50D63F
(1763034496.015528) can0 028001AA#AFD27ACF7DE000FA
(1763034496.015683) can0 028002AA#93B77A607F410104
(1763034496.056488) can0 1200AA01#1670000011968B40
(1763034496.056688) can0 1200AA02#167000009810CD3F
(1763034496.057175) can0 028001AA#AF177AC4805400FA
(1763034496.057309) can0 028002AA#92FA7AB87F180104
(1763034496.098152) can0 1200AA01#16700000934A8940
(1763034496.098313) can0 1200AA02#16700000A0E2C33F
(1763034496.098801) can0 028001AA#AE5B7AB47F4F00FA
(1763034496.098956) can0 028002AA#923F7A727FCF0104
(1763034496.139889) can0 1200AA01#1670000094048740
(1763034496.139978) can0 1200AA02#16700000A4CABA3F
(1763034496.140488) can0 028001AA#AD9F7B397D4B00FA
(1763034496.140649) can0 028002AA#91857B017F500104
(1763034496.181508) can0 1200AA01#167000002EC58440
(1763034496.181690) can0 1200AA02#167000000ACDB13F
(1763034496.182170) can0 028001AA#ACE47AB37D3900FA
(1763034496.182304) can0 028002AA#90C87A8F7F850104
(1763034496.223327) can0 1200AA01#167000007B8D8240
(1763034496.223499) can0 1200AA02#167000003EEEA83F
(1763034496.223989) can0 028001AA#AC287B1180D100FA
(1763034496.224145) can0 028002AA#900D7ADF7EAE0104
(1763034496.264862) can0 1200AA01#16700000925E8040
(1763034496.264971) can0 1200AA02#167000009C32A03F
(1763034496.265482) can0 028001AA#AB6E7B1C7F6A00FA
(1763034496.265636) can0 028002AA#8F537A767F620104
(1763034496.306573) can0 1200AA01#167000001E737C40
(1763034496.306704) can0 1200AA02#16700000909E973F
(1763034496.307236) can0 028001AA#AAB37B1B7E0B00FA
(1763034496.307347) can0 028002AA#8E997AE87F900104
(1763034496.348240) can0 1200AA01#16700000163F7840
(1763034496.348430) can0 1200AA02#167000007E368F3F
(1763034496.348931) can0 028001AA#A9FC7BA67DB100FA
(1763034496.349075) can0 028002AA#8DE27B597ED10104
(1763034496.389832) can0 1200AA01#167000003F237440
(1763034496.389919) can0 1200AA02#16700000D0FE863F
(1763034496.390494) can0 028001AA#A9477BA17FB300FA
(1763034496.390610) can0 028002AA#8D2A7B5A7F2C0104
(1763034496.431475) can0 1200AA01#16700000C9217040
(1763034496.431568) can0 1200AA02#16700000C9F77D3F
(1763034496.432097) can0 028001AA#A8937B38809C00FA
(1763034496.432320) can0 028002AA#8C777BC07ED10104
(1763034496.473150) can0 1200AA01#16700000EB3C6C40
(1763034496.473319) can0 1200AA02#1670000051646E3F
(1763034496.473808) can0 028001AA#A7E27B277F3F00FA
(1763034496.473962) can0 028002AA#8BC77B937F740104
(1763034496.514810) can0 1200AA01#16700000D5766840
(1763034496.514923) can0 1200AA02#16700000FA4B5F3F
(1763034496.515433) can0 028001AA#A7337B207F0200FA
(1763034496.515588) can0 028002AA#8B1A7B767FA20104
(1763034496.556478) can0 1200AA01#16700000BBD16440
(1763034496.556601) can0 1200AA02#1670000091B7503F
(1763034496.557131) can0 028001AA#A6897B7C7DDC00FA
(1763034496.557240) can0 028002AA#8A6F7B407F0A0104
(1763034496.598326) can0 1200AA01#16700000D24F6140
(1763034496.598533) can0 1200AA02#16700000EEAF423F
(1763034496.598847) can0 028001AA#A5E27B977C8100FA
(1763034496.599180) can0 028002AA#89C67BAB7ED40104
(1763034496.639830) can0 1200AA01#1670000049F35D40
(1763034496.639938) can0 1200AA02#16700000C93D353F
(1763034496.640453) can0 028001AA#A5417B997D3300FA
(1763034496.640615) can0 028002AA#89257B2D7F360104
(1763034496.681490) can0 1200AA01#1670000055BE5A40
(1763034496.681674) can0 1200AA02#16700000F969283F
(1763034496.682161) can0 028001AA#A4A67BAF7D8D00FA
(1763034496.682320) can0 028002AA#88887B347F650104
(1763034496.723146) can0 1200AA01#1670000029B35740
(1763034496.723353) can0 1200AA02#16700000483D1C3F
(1763034496.723814) can0 028001AA#A40C7C197D4F00FA
(1763034496.723967) can0 028002AA#87F07C2D7F240104
(1763034496.764834) can0 1200AA01#16700000F9D35440
(1763034496.764925) can0 1200AA02#1670000089C0103F
(1763034496.765458) can0 028001AA#A37A7C877DA000FA
(1763034496.765614) can0 028002AA#875C7BE87E200104
(1763034496.806474) can0 1200AA01#16700000F6225240
(1763034496.806620) can0 1200AA02#167000007DFC053F
(1763034496.807085) can0 028001AA#A2ED7CE07D6700FA
(1763034496.807241) can0 028002AA#86D07BB27EB00104
(1763034496.848159) can0 1200AA01#1670000052A24F40
(1763034496.848340) can0 1200AA02#16700000DAF3F73E
(1763034496.848663) can0 028001AA#A2657CE07CAB00FA
(1763034496.848982) can0 028002AA#864A7C317F170104
(1763034496.889833) can0 1200AA01#1670000043544D40
(1763034496.890032) can0 1200AA02#167000006283E53E
(1763034496.890497) can0 028001AA#A1E67CB97D4900FA
(1763034496.890663) can0 028002AA#85CB7C907F050104
(1763034496.931420) can0 1200AA01#16700000FD3A4B40
(1763034496.931511) can0 1200AA02#1670000032B9D43E
(1763034496.932042) can0 028001AA#A16F7CAB803000FA
(1763034496.932200) can0 028002AA#85557CBB805C0104
(1763034496.973495) can0 1200AA01#16700000AD584940
(1763034496.973691) can0 1200AA02#16700000B2A6C53E
(1763034496.974174) can0 028001AA#A1007CC9806E00FA
(1763034496.974326) can0 028002AA#84E67CF67D600104
(1763034497.015500) can0 1200AA01#167000008BAF4740
(1763034497.015707) can0 1200AA02#16700000A25DB83E
(1763034497.016194) can0 028001AA#A09A7DCE7B7600FA
(1763034497.016327) can0 028002AA#847D7D817F660104
(1763034497.056613) can0 1200AA01#16700000C7414640
(1763034497.056716) can0 1200AA02#1670000082EFAC3E
(1763034497.057234) can0 028001AA#A03D7D87806700FA
(1763034497.057373) can0 028002AA#84247D607F350104
(1763034497.098119) can0 1200AA01#1670000099114540
(1763034497.098209) can0 1200AA02#16700000126EA33E
(1763034497.098765) can0 028001AA#9FED7DB67F9200FA
(1763034497.098918) can0 028002AA#83D27DA67F3E0104
(1763034497.140127) can0 1200AA01#167000002D214440
(1763034497.140322) can0 1200AA02#16700000B2EA9B3E
(1763034497.140819) can0 028001AA#9FA37E0D817000FA
(1763034497.140967) can0 028002AA#83897E3C7F2D0104
(1763034497.182011) can0 1200AA01#16700000B7724340
(1763034497.182209) can0 1200AA02#167000000277963E
(1763034497.182547) can0 028001AA#9F6A7E887CFB00FA
(1763034497.182886) can0 028002AA#834D7E7D7F330104
(1763034497.223796) can0 1200AA01#167000006D084340
(1763034497.224245) can0 1200AA02#16700000B224933E
(1763034497.224417) can0 028001AA#9F3A7EE37F0F00FA
(1763034497.224835) can0 028002AA#83217F757F470104
(1763034497.264983) can0 1200AA01#1670000082E44240
(1763034497.265164) can0 1200AA02#167000005A05923E
(1763034497.265672) can0 028001AA#9F187F297F7E00FA
(1763034497.265831) can0 028002AA#83007F407E4B0104
(1763034497.307054) can0 1200AA01#167000009EE94240
(1763034497.307260) can0 1200AA02#16700000362E923E
(1763034497.307545) can0 028001AA#9F067FAC806500FA
(1763034497.307875) can0 028002AA#82ED7FD77EB50104
(1763034497.348121) can0 1200AA01#16700000D4F84240
(1763034497.348333) can0 1200AA02#16700000E8A7923E
(1763034497.348648) can0 028001AA#9F027FD97ECA00FA
(1763034497.348979) can0 028002AA#82E77F487F540104
(1763034497.389866) can0 1200AA01#16700000FA114340
(1763034497.389990) can0 1200AA02#167000001D71933E
(1763034497.390504) can0 028001AA#9F038075807800FA
(1763034497.390669) can0 028002AA#82E77FA480C50104
(1763034497.431479) can0 1200AA01#16700000E7344340
(1763034497.431592) can0 1200AA02#167000008188943E
(1763034497.432117) can0 028001AA#9F057FCF82A400FA
(1763034497.432336) can0 028002AA#82E9804A820D0104
(1763034497.473174) can0 1200AA01#167000006F614340
(1763034497.473261) can0 1200AA02#16700000C1EC953E
(1763034497.473814) can0 028001AA#9F07803282A900FA
(1763034497.473965) can0 028002AA#82ED800180E20104
(1763034497.514842) can0 1200AA01#1670000068974340
(1763034497.515033) can0 1200AA02#167000008A9C973E
(1763034497.515380) can0 028001AA#9F0C804F823E00FA
(1763034497.515670) can0 028002AA#82F380137FC70104
(1763034497.556467) can0 1200AA01#16700000A8D64340
(1763034497.556647) can0 1200AA02#167000008996993E
(1763034497.557008) can0 028001AA#9F137FC2811000FA
(1763034497.557339) can0 028002AA#82FB8070813F0104
(1763034497.598149) can0 1200AA01#16700000041F4440
(1763034497.598281) can0 1200AA02#167000006AD99B3E
(1763034497.598773) can0 028001AA#9F1D804980E200FA
(1763034497.598925) can0 028002AA#8304805C80140104
(1763034497.639830) can0 1200AA01#1670000052704440
(1763034497.639921) can0 1200AA02#16700000DB639E3E
(1763034497.640473) can0 028001AA#9F2780A2823700FA
(1763034497.640629) can0 028002AA#830E808780F50104
(1763034497.681525) can0 1200AA01#1670000068CA4440
(1763034497.681626) can0 1200AA02#167000008834A13E
(1763034497.682150) can0 028001AA#9F318028823F00FA
(1763034497.682341) can0 028002AA#831C8081808F0104
(1763034497.723176) can0 1200AA01#167000001A2D4540
(1763034497.723351) can0 1200AA02#167000001D4AA43E
(1763034497.723826) can0 028001AA#9F408032828600FA
(1763034497.723984) can0 028002AA#8328805680790104
(1763034497.764846) can0 1200AA01#1670000040984540
(1763034497.765092) can0 1200AA02#1670000048A3A73E
(1763034497.765383) can0 028001AA#9F518049812400FA
(1763034497.765714) can0 028002AA#83387FE682AD0104
(1763034497.806827) can0 1200AA01#16700000AD0B4640
(1763034497.807028) can0 1200AA02#16700000B53EAB3E
(1763034497.807512) can0 028001AA#9F6480247FC700FA
(1763034497.807686) can0 028002AA#834880D5828D0104
(1763034497.848350) can0 1200AA01#1670000039874640
(1763034497.848525) can0 1200AA02#16700000111BAF3E
(1763034497.849014) can0 028001AA#9F7780F3814100FA
(1763034497.849173) can0 028002AA#835880FF816A0104
(1763034497.889812) can0 1200AA01#16700000B80A4740
(1763034497.890240) can0 1200AA02#167000000837B33E
(1763034497.890384) can0 028001AA#9F8981057FBA00FA
(1763034497.890803) can0 028002AA#836A80D781990104
(1763034497.931505) can0 1200AA01#1670000000964740
(1763034497.931614) can0 1200AA02#167000004891B73E
(1763034497.932148) can0 028001AA#9F9A807281DC00FA
(1763034497.932262) can0 028002AA#837D80A081580104
(1763034497.973225) can0 1200AA01#16700000E6284840
(1763034497.973343) can0 1200AA02#167000007E28BC3E
(1763034497.973874) can0 028001AA#9FAC80C8820000FA
(1763034497.973990) can0 028002AA#839180F3816C0104
(1763034498.015110) can0 1200AA01#1670000041C34840
(1763034498.015353) can0 1200AA02#1670000056FBC03E
(1763034498.015683) can0 028001AA#9FC18062831900FA
(1763034498.015952) can0 028002AA#83AA80A080440104
(1763034498.056576) can0 1200AA01#16700000E6644940
(1763034498.056698) can0 1200AA02#167000007C08C63E
(1763034498.057188) can0 028001AA#9FD980B381EB00FA
(1763034498.057343) can0 028002AA#83C180237F3B0104
(1763034498.098742) can0 1200AA01#16700000AA0D4A40
(1763034498.099020) can0 1200AA02#167000009D4ECB3E
(1763034498.099352) can0 028001AA#9FF580777E6F00FA
(1763034498.099594) can0 028002AA#83DA802080690104
(1763034498.139911) can0 1200AA01#1670000064BD4A40
(1763034498.139995) can0 1200AA02#1670000068CCD03E
(1763034498.140553) can0 028001AA#A011811D7FEA00FA
(1763034498.140706) can0 028002AA#83F481287FD00104
(1763034498.182042) can0 1200AA01#16700000E8734B40
(1763034498.182350) can0 1200AA02#167000008680D63E
(1763034498.182576) can0 028001AA#A02C80DB80A100FA
(1763034498.182907) can0 028002AA#840D8064816F0104
(1763034498.222873) can0 1200AA01#167000000C314C40
(1763034498.223048) can0 1200AA02#16700000A869DC3E
(1763034498.223558) can0 028001AA#A0438072818600FA
(1763034498.223714) can0 028002AA#842780D2838D0104
(1763034498.264957) can0 1200AA01#16700000A6F44C40
(1763034498.265042) can0 1200AA02#167000007786E23E
(1763034498.265562) can0 028001AA#A05F80C6826200FA
(1763034498.265671) can0 028002AA#844780FF7FA90104
(1763034498.306413) can0 1200AA01#167000008BBE4D40
(1763034498.306522) can0 1200AA02#16700000A1D5E83E
(1763034498.307056) can0 028001AA#A07C80F4823B00FA
(1763034498.307208) can0 028002AA#846580F9813F0104
(1763034498.348111) can0 1200AA01#16700000918E4E40
(1763034498.348201) can0 1200AA02#16700000D455EF3E
(1763034498.348739) can0 028001AA#A0A080D07F2100FA
(1763034498.348894) can0 028002AA#848380EF82660104
(1763034498.390152) can0 1200AA01#167000008E644F40
(1763034498.390264) can0 1200AA02#16700000BC05F63E
(1763034498.390795) can0 028001AA#A0C0808D806C00FA
(1763034498.390955) can0 028002AA#84A3804F81910104
(1763034498.432156) can0 1200AA01#1670000057405040
(1763034498.432352) can0 1200AA02#1670000004E4FC3E
(1763034498.432845) can0 028001AA#A0DF80EE82AF00FA
(1763034498.432996) can0 028002AA#84C2813E801B0104
(1763034498.473492) can0 1200AA01#16700000C2215140
(1763034498.473831) can0 1200AA02#16700000AEF7013F
(1763034498.474043) can0 028001AA#A0FE80A1818700FA
(1763034498.474350) can0 028002AA#84E680D780EB0104
(1763034498.514786) can0 1200AA01#16700000A4085240
(1763034498.514872) can0 1200AA02#167000003793053F
(1763034498.515427) can0 028001AA#A12180F6807700FA
(1763034498.515580) can0 028002AA#850980F480690104
(1763034498.556450) can0 1200AA01#16700000D4F45240
(1763034498.556560) can0 1200AA02#16700000F443093F
(1763034498.557095) can0 028001AA#A14A809A800200FA
(1763034498.557248) can0 028002AA#852C811981CA0104
(1763034498.598235) can0 1200AA01#1670000026E65340
(1763034498.598345) can0 1200AA02#167000003C090D3F
(1763034498.598879) can0 028001AA#A16B8059827100FA
(1763034498.599039) can0 028002AA#854E80AB82640104
(1763034498.639882) can0 1200AA01#1670000070DC5440
(1763034498.640016) can0 1200AA02#1670000064E2103F
(1763034498.640528) can0 028001AA#A18E80E1811C00FA
(1763034498.640686) can0 028002AA#857580E580130104
(1763034498.681447) can0 1200AA01#1670000088D75540
(1763034498.681564) can0 1200AA02#16700000C3CE143F
(1763034498.682095) can0 028001AA#A1B480EA817C00FA
(1763034498.682208) can0 028002AA#859C80567FFB0104
(1763034498.723115) can0 1200AA01#1670000042D75640
(1763034498.723362) can0 1200AA02#16700000AFCD183F
(1763034498.723679) can0 028001AA#A1DF8148802400FA
(1763034498.724009) can0 028002AA#85C181837F8E0104
(1763034498.764774) can0 1200AA01#1670000077DB5740
(1763034498.764891) can0 1200AA02#1670000080DE1C3F
(1763034498.765393) can0 028001AA#A2048087819F00FA
(1763034498.765546) can0 028002AA#85E880BE80A30104
(1763034498.806745) can0 1200AA01#16700000F9E35840
(1763034498.806863) can0 1200AA02#167000008A00213F
(1763034498.807355) can0 028001AA#A22A812D826300FA
(1763034498.807505) can0 028002AA#861481357FB20104
(1763034498.848468) can0 1200AA01#16700000A0F05940
(1763034498.848694) can0 1200AA02#167000002633253F
(1763034498.849005) can0 028001AA#A25581C581C500FA
(1763034498.849293) can0 028002AA#863D815580F50104
(1763034498.889825) can0 1200AA01#1670000041015B40
(1763034498.889939) can0 1200AA02#16700000A875293F
(1763034498.890448) can0 028001AA#A28180D5819000FA
(1763034498.890606) can0 028002AA#86648124825D0104
(1763034498.931436) can0 1200AA01#16700000B0155C40
(1763034498.931555) can0 1200AA02#1670000067C72D3F
(1763034498.932075) can0 028001AA#A2AA813180E500FA
(1763034498.932233) can0 028002AA#868D812281A70104
(1763034498.973468) can0 1200AA01#16700000C52D5D40
(1763034498.973591) can0 1200AA02#16700000BA27323F
(1763034498.974118) can0 028001AA#A2D38141829000FA
(1763034498.974269) can0 028002AA#86BA817B80010104
(1763034499.014888) can0 1200AA01#1670000054495E40
(1763034499.015015) can0 1200AA02#16700000F695363F
(1763034499.015520) can0 028001AA#A30381787E9B00FA
(1763034499.015675) can0 028002AA#86E6817482760104
(1763034499.056540) can0 1200AA01#1670000034685F40
(1763034499.056568) can0 1200AA02#1670000075113B3F
(1763034499.057159) can0 028001AA#A32E815382C100FA
(1763034499.057323) can0 028002AA#871080EA81780104
(1763034499.098522) can0 1200AA01#16700000398A6040
(1763034499.098736) can0 1200AA02#1670000089993F3F
(1763034499.099231) can0 028001AA#A358815082CD00FA
(1763034499.099422) can0 028002AA#874181447EDF0104
(1763034499.140109) can0 1200AA01#167000003AAF6140
(1763034499.140349) can0 1200AA02#167000008B2D443F
(1763034499.140634) can0 028001AA#A38781B47F7900FA
(1763034499.140977) can0 028002AA#876F81157EC50104
(1763034499.181693) can0 1200AA01#167000000BD76240
(1763034499.182154) can0 1200AA02#16700000D0CC483F
(1763034499.182338) can0 028001AA#A3B881A180E500FA
(1763034499.182690) can0 028002AA#879B81157F6D0104
(1763034499.223385) can0 1200AA01#1670000082016440
(1763034499.223628) can0 1200AA02#16700000AE764D3F
(1763034499.224098) can0 028001AA#A3E2805C841500FA
(1763034499.224261) can0 028002AA#87C8815E81E30104
(1763034499.264867) can0 1200AA01#16700000762E6540
(1763034499.264973) can0 1200AA02#167000007E2A523F
(1763034499.265568) can0 028001AA#A4108151812E00FA
(1763034499.265635) can0 028002AA#87F881C780B90104
(1763034499.306528) can0 1200AA01#16700000BC5D6640
(1763034499.306699) can0 1200AA02#1670000095E7563F
(1763034499.307201) can0 028001AA#A4428140815B00FA
(1763034499.307267) can0 028002AA#88278193806D0104
(1763034499.348193) can0 1200AA01#16700000298F6740
(1763034499.348302) can0 1200AA02#1670000048AD5B3F
(1763034499.348877) can0 028001AA#A471815C813100FA
(1763034499.349033) can0 028002AA#885580D184640104
(1763034499.390212) can0 1200AA01#1670000092C26840
(1763034499.390413) can0 1200AA02#16700000EE7A603F
(1763034499.390770) can0 028001AA#A4A08109802D00FA
(1763034499.391060) can0 028002AA#8889817C7F760104
(1763034499.431507) can0 1200AA01#16700000CEF76940
(1763034499.431598) can0 1200AA02#16700000DF4F653F
(1763034499.432180) can0 028001AA#A4D481177F2300FA
(1763034499.432256) can0 028002AA#88B7819E7F7D0104
(1763034499.473260) can0 1200AA01#16700000B22E6B40
(1763034499.473287) can0 1200AA02#167000006F2B6A3F
(1763034499.473855) can0 028001AA#A50281A382DD00FA
(1763034499.474020) can0 028002AA#88E6813981B00104
(1763034499.514847) can0 1200AA01#1670000014676C40
(1763034499.514951) can0 1200AA02#16700000F70C6F3F
(1763034499.515517) can0 028001AA#A530817681E500FA
(1763034499.515612) can0 028002AA#891A817F7DBC0104
(1763034499.556475) can0 1200AA01#16700000CAA06D40
(1763034499.556582) can0 1200AA02#16700000CCF3733F
(1763034499.557105) can0 028001AA#A56681297FB500FA
(1763034499.557271) can0 028002AA#894A817A7F4A0104
(1763034499.598187) can0 1200AA01#16700000A7DB6E40
(1763034499.598380) can0 1200AA02#1670000042DF783F
(1763034499.598811) can0 028001AA#A5958198815D00FA
(1763034499.598963) can0 028002AA#897A816F81650104
(1763034499.639791) can0 1200AA01#1670000084177040
(1763034499.639994) can0 1200AA02#16700000B5CE7D3F
(1763034499.640478) can0 028001AA#A5C5812A80A800FA
(1763034499.640635) can0 028002AA#89AE81A2808B0104
(1763034499.681524) can0 1200AA01#1670000034547140
(1763034499.681594) can0 1200AA02#16700000BB60813F
(1763034499.682179) can0 028001AA#A5FC81587F3400FA
(1763034499.682275) can0 028002AA#89DF8193821A0104
(1763034499.723209) can0 1200AA01#167000008E917240
(1763034499.723213) can0 1200AA02#167000006FDB833F
(1763034499.723812) can0 028001AA#A62D81A681BB00FA
(1763034499.723939) can0 028002AA#8A10817280220104
(1763034499.764793) can0 1200AA01#1670000068CF7340
(1763034499.764911) can0 1200AA02#167000002257863F
(1763034499.765459) can0 028001AA#A65C8157825600FA
(1763034499.765631) can0 028002AA#8A4482067F9A0104
(1763034499.806526) can0 1200AA01#16700000960D7540
(1763034499.806585) can0 1200AA02#167000007ED3883F
(1763034499.807172) can0 028001AA#A69381817E8700FA
(1763034499.807294) can0 028002AA#8A77817480700104
(1763034499.848209) can0 1200AA01#16700000EE4B7640
(1763034499.848471) can0 1200AA02#167000002E508B3F
(1763034499.848927) can0 028001AA#A6C280FC81B300FA
(1763034499.849079) can0 028002AA#8AA7811E82570104
(1763034499.889902) can0 1200AA01#16700000468A7740
(1763034499.890088) can0 1200AA02#16700000E0CC8D3F
(1763034499.890617) can0 028001AA#A6F3818881E800FA
(1763034499.890762) can0 028002AA#8ADC81147E530104
(1763034499.931493) can0 1200AA01#1670000074C87840
(1763034499.931583) can0 1200AA02#167000003B49903F
(1763034499.932150) can0 028001AA#A72A81847EEA00FA
(1763034499.932223) can0 028002AA#8B0D818481C20104
(1763034499.973177) can0 1200AA01#167000004D067A40
(1763034499.973262) can0 1200AA02#16700000EDC4923F
(1763034499.973821) can0 028001AA#A75B817C815C00FA
(1763034499.973922) can0 028002AA#8B3E814881890104
(1763034500.014920) can0 1200AA01#16700000A7437B40
(1763034500.014972) can0 1200AA02#16700000A13F953F
(1763034500.015574) can0 028001AA#A78B816982BE00FA
(1763034500.015668) can0 028002AA#8B7381BC7F860104
(1763034500.056550) can0 1200AA01#1670000058807C40
(1763034500.056665) can0 1200AA02#1670000004B9973F
(1763034500.057198) can0 028001AA#A7C381607EAA00FA
(1763034500.057364) can0 028002AA#8BA681007F770104
(1763034500.098309) can0 1200AA01#1670000035BC7D40
(1763034500.098416) can0 1200AA02#16700000BC309A3F
(1763034500.099002) can0 028001AA#A7F28115811D00FA
(1763034500.099166) can0 028002AA#8BD6816480620104
(1763034500.139815) can0 1200AA01#1670000012F77E40
(1763034500.139932) can0 1200AA02#1670000078A69C3F
(1763034500.140482) can0 028001AA#A82381AC80F300FA
(1763034500.140608) can0 028002AA#8C0B815B7FAD0104
(1763034500.181477) can0 1200AA01#1670000064188040
(1763034500.181589) can0 1200AA02#16700000E2199F3F
(1763034500.182121) can0 028001AA#A859816A7F2C00FA
(1763034500.182283) can0 028002AA#8C3C814880680104
(1763034500.223174) can0 1200AA01#1670000095B48040
(1763034500.223290) can0 1200AA02#16700000A68AA13F
(1763034500.223817) can0 028001AA#A88A816B818700FA
(1763034500.223970) can0 028002AA#8C6D8134807D0104
(1763034500.264988) can0 1200AA01#1670000006508140
(1763034500.265070) can0 1200AA02#167000006CF8A33F
(1763034500.265598) can0 028001AA#A8B981A280AC00FA
(1763034500.265756) can0 028002AA#8CA38174805E0104
(1763034500.306495) can0 1200AA01#16700000A5EA8140
(1763034500.306635) can0 1200AA02#16700000E662A63F
(1763034500.307143) can0 028001AA#A8EF8167803D00FA
(1763034500.307300) can0 028002AA#8CD48198801C0104
(1763034500.348117) can0 1200AA01#1670000059848240
(1763034500.348193) can0 1200AA02#16700000B8C9A83F
(1763034500.348743) can0 028001AA#A91D81B082EA00FA
(1763034500.348895) can0 028002AA#8D038120822C0104
(1763034500.389775) can0 1200AA01#16700000101D8340
(1763034500.389887) can0 1200AA02#16700000922CAB3F
(1763034500.390419) can0 028001AA#A94E8104830600FA
(1763034500.390574) can0 028002AA#8D35816980A00104
(1763034500.431469) can0 1200AA01#16700000B3B48340
(1763034500.431583) can0 1200AA02#167000001E8BAD3F
(1763034500.432117) can0 028001AA#A984816E7E4600FA
(1763034500.432268) can0 028002AA#8D67815380EC0104
(1763034500.473165) can0 1200AA01#167000002D4B8440
(1763034500.473277) can0 1200AA02#1670000006E5AF3F
(1763034500.473787) can0 028001AA#A9B1816D829200FA
(1763034500.473946) can0 028002AA#8D95820181090104
(1763034500.514857) can0 1200AA01#1670000069E08440
(1763034500.515054) can0 1200AA02#16700000F639B23F
(1763034500.515391) can0 028001AA#A9E18136817A00FA
(1763034500.515680) can0 028002AA#8DC8810C80360104
(1763034500.556496) can0 1200AA01#1670000052748540
(1763034500.556617) can0 1200AA02#167000009889B43F
(1763034500.557148) can0 028001AA#AA14813E7E6A00FA
(1763034500.557261) can0 028002AA#8DF8811B81720104
(1763034500.598158) can0 1200AA01#16700000D2068640
(1763034500.598390) can0 1200AA02#1670000098D3B63F
(1763034500.598748) can0 028001AA#AA43817582CB00FA
(1763034500.599034) can0 028002AA#8E278140821D0104
(1763034500.639811) can0 1200AA01#16700000D4978640
(1763034500.639928) can0 1200AA02#16700000A217B93F
(1763034500.640443) can0 028001AA#AA6F818E83A600FA
(1763034500.640603) can0 028002AA#8E5881BF7EF40104
(1763034500.681556) can0 1200AA01#1670000044278740
(1763034500.681560) can0 1200AA02#167000006055BB3F
(1763034500.682173) can0 028001AA#AAA2813A7F7E00FA
(1763034500.682344) can0 028002AA#8E87810C82060104
(1763034500.723243) can0 1200AA01#167000000CB58740
(1763034500.723307) can0 1200AA02#16700000808CBD3F
(1763034500.723894) can0 028001AA#AAD18103820900FA
(1763034500.724018) can0 028002AA#8EB5810682B20104
(1763034500.764898) can0 1200AA01#1670000016418840
(1763034500.764968) can0 1200AA02#16700000AABCBF3F
(1763034500.765497) can0 028001AA#AAFC80FB82E700FA
(1763034500.765627) can0 028002AA#8EE1815480510104
(1763034500.806551) can0 1200AA01#167000004ECB8840
(1763034500.806593) can0 1200AA02#167000008AE5C13F
(1763034500.807166) can0 028001AA#AB2A812C815B00FA
(1763034500.807325) can0 028002AA#8F11816482400104
(1763034500.848179) can0 1200AA01#167000009E538940
(1763034500.848294) can0 1200AA02#16700000CC06C43F
(1763034500.848875) can0 028001AA#AB5A810080B900FA
(1763034500.848937) can0 028002AA#8F3D814980B20104
(1763034500.889801) can0 1200AA01#16700000F1D98940
(1763034500.889908) can0 1200AA02#167000001820C63F
(1763034500.890504) can0 028001AA#AB83808F820400FA
(1763034500.890660) can0 028002AA#8F6780E980E40104
(1763034500.931470) can0 1200AA01#16700000335E8A40
(1763034500.931603) can0 1200AA02#167000001E31C83F
(1763034500.932157) can0 028001AA#ABAE8180815500FA
(1763034500.932319) can0 028002AA#8F9681277EEE0104
(1763034500.973224) can0 1200AA01#167000004DE08A40
(1763034500.973463) can0 1200AA02#167000008639CA3F
(1763034500.973675) can0 028001AA#ABDD814D7CC700FA
(1763034500.974056) can0 028002AA#8FC2816082810104
(1763034501.014806) can0 1200AA01#167000002A608B40
(1763034501.014889) can0 1200AA02#16700000FC38CC3F
(1763034501.015389) can0 028001AA#AC06814780DB00FA
(1763034501.015558) can0 028002AA#8FE880ED81D00104
(1763034501.056513) can0 1200AA01#16700000B6DD8B40
(1763034501.056602) can0 1200AA02#167000002C2FCE3F
(1763034501.057170) can0 028001AA#AC2D817E812B00FA
(1763034501.057295) can0 028002AA#9014817180F70104
(1763034501.098143) can0 1200AA01#16700000DB588C40
(1763034501.098258) can0 1200AA02#16700000C01BD03F
(1763034501.098844) can0 028001AA#AC57811C7FDD00FA
(1763034501.098941) can0 028002AA#903D8199818E0104
(1763034501.139903) can0 1200AA01#1670000084D18C40
(1763034501.139914) can0 1200AA02#1670000062FED13F
(1763034501.140525) can0 028001AA#AC8280D2814500FA
(1763034501.140633) can0 028002AA#9065810B80140104
(1763034501.181504) can0 1200AA01#167000009C478D40
(1763034501.181730) can0 1200AA02#16700000C0D6D33F
(1763034501.182212) can0 028001AA#ACA7811182B400FA
(1763034501.182387) can0 028002AA#908B807F81B00104
(1763034501.223189) can0 1200AA01#167000000DBB8D40
(1763034501.223304) can0 1200AA02#1670000086A4D53F
(1763034501.223891) can0 028001AA#ACCC80E3813400FA
(1763034501.223988) can0 028002AA#90B481027F950104
(1763034501.264850) can0 1200AA01#16700000C22B8E40
(1763034501.265053) can0 1200AA02#167000005A67D73F
(1763034501.265529) can0 028001AA#ACF5817C7DC600FA
(1763034501.265681) can0 028002AA#90DA812C7FF50104
(1763034501.306469) can0 1200AA01#16700000A7998E40
(1763034501.306575) can0 1200AA02#16700000EE1ED93F
(1763034501.307155) can0 028001AA#AD1C8140809C00FA
(1763034501.307319) can0 028002AA#90FD8103817B0104
(1763034501.348183) can0 1200AA01#16700000A5048F40
(1763034501.348338) can0 1200AA02#16700000E8CADA3F
(1763034501.348847) can0 028001AA#AD3D80F1827E00FA
(1763034501.348999) can0 028002AA#9120810781B20104
(1763034501.389820) can0 1200AA01#16700000A96C8F40
(1763034501.389934) can0 1200AA02#16700000F66ADC3F
(1763034501.390492) can0 028001AA#AD5E8172840D00FA
(1763034501.390615) can0 028002AA#91458069806B0104
(1763034501.431586) can0 1200AA01#167000009CD18F40
(1763034501.431589) can0 1200AA02#16700000C0FEDD3F
(1763034501.432175) can0 028001AA#AD818112806500FA
(1763034501.432277) can0 028002AA#916A812C807A0104
(1763034501.473248) can0 1200AA01#1670000068339040
(1763034501.473406) can0 1200AA02#16700000F485DF3F
(1763034501.473971) can0 028001AA#ADA7811F7ED900FA
(1763034501.474049) can0 028002AA#918B80AE7FCA0104
(1763034501.514840) can0 1200AA01#16700000FA919040
(1763034501.515085) can0 1200AA02#167000003C00E13F
(1763034501.515514) can0 028001AA#ADC680C7827E00FA
(1763034501.515674) can0 028002AA#91A980BB817A0104
(1763034501.556488) can0 1200AA01#167000003CED9040
(1763034501.556572) can0 1200AA02#16700000426DE23F
(1763034501.557181) can0 028001AA#ADE380EA827100FA
(1763034501.557257) can0 028002AA#91C880E180A30104
(1763034501.598200) can0 1200AA01#1670000019459140
(1763034501.598315) can0 1200AA02#16700000B6CCE33F
(1763034501.598852) can0 028001AA#AE01806582B000FA
(1763034501.599003) can0 028002AA#91E7810E80EF0104
(1763034501.639850) can0 1200AA01#167000007A999140
(1763034501.639993) can0 1200AA02#167000003C1EE53F
(1763034501.640554) can0 028001AA#AE1F80B8804C00FA
(1763034501.640634) can0 028002AA#920780AE7F360104
(1763034501.681590) can0 1200AA01#167000004EEA9140
(1763034501.681594) can0 1200AA02#167000008861E63F
(1763034501.682177) can0 028001AA#AE4080757D9900FA
(1763034501.682336) can0 028002AA#9222808F81F10104
(1763034501.723168) can0 1200AA01#167000007B379240
(1763034501.723401) can0 1200AA02#167000003E96E73F
(1763034501.723901) can0 028001AA#AE5880CD7F5700FA
(1763034501.723962) can0 028002AA#923B811E81490104
(1763034501.764839) can0 1200AA01#16700000EE809240
(1763034501.765054) can0 1200AA02#167000000ABCE83F
(1763034501.765559) can0 028001AA#AE6E809F83C300FA
(1763034501.765615) can0 028002AA#925580AD811C0104
(1763034501.806493) can0 1200AA01#1670000092C69240
(1763034501.806653) can0 1200AA02#167000009AD2E93F
(1763034501.807173) can0 028001AA#AE868079836E00FA
(1763034501.807329) can0 028002AA#926F80B97FD50104
(1763034501.848191) can0 1200AA01#1670000052089340
(1763034501.848361) can0 1200AA02#167000009AD9EA3F
(1763034501.848881) can0 028001AA#AEA080A9827800FA
(1763034501.849036) can0 028002AA#92878083815D0104
(1763034501.889836) can0 1200AA01#1670000017469340
(1763034501.889994) can0 1200AA02#16700000AED0EB3F
(1763034501.890547) can0 028001AA#AEB980AE7FF800FA
(1763034501.890645) can0 028002AA#929E80AC81B10104
(1763034501.931534) can0 1200AA01#16700000CE7F9340
(1763034501.931646) can0 1200AA02#167000008CB7EC3F
(1763034501.932216) can0 028001AA#AECF8043801100FA
(1763034501.932307) can0 028002AA#92B380C980520104
(1763034501.973264) can0 1200AA01#1670000061B59340
(1763034501.973268) can0 1200AA02#16700000D68DED3F
(1763034501.973882) can0 028001AA#AEE3807380F600FA
(1763034501.973973) can0 028002AA#92C58069801E0104
(1763034502.014848) can0 1200AA01#16700000BAE69340
(1763034502.014956) can0 1200AA02#167000003A53EE3F
(1763034502.015464) can0 028001AA#AEF2804282AB00FA
(1763034502.015618) can0 028002AA#92D6805A80980104
(1763034502.056487) can0 1200AA01#16700000C4139440
(1763034502.056724) can0 1200AA02#167000006407EF3F
(1763034502.057189) can0 028001AA#AF028029826300FA
(1763034502.057345) can0 028002AA#92E780B381880104
(1763034502.098158) can0 1200AA01#167000006C3C9440
(1763034502.098292) can0 1200AA02#1670000004AAEF3F
(1763034502.098852) can0 028001AA#AF11809A83A700FA
(1763034502.099033) can0 028002AA#92F7803F82320104
(1763034502.139813) can0 1200AA01#1670000099609440
(1763034502.139931) can0 1200AA02#16700000B63AF03F
(1763034502.140541) can0 028001AA#AF1E8024820800FA
(1763034502.140618) can0 028002AA#93077FEC80D70104
(1763034502.181483) can0 1200AA01#167000003A809440
(1763034502.181767) can0 1200AA02#167000003CB9F03F
(1763034502.182089) can0 028001AA#AF2A8059828B00FA
(1763034502.182376) can0 028002AA#931480117F630104
(1763034502.223233) can0 1200AA01#16700000369B9440
(1763034502.223365) can0 1200AA02#167000002C25F13F
(1763034502.223746) can0 028001AA#AF377FED815700FA
(1763034502.224019) can0 028002AA#932080787FF00104
(1763034502.264944) can0 1200AA01#167000007BB19440
(1763034502.265334) can0 1200AA02#167000003E7EF13F
(1763034502.265563) can0 028001AA#AF438030809300FA
(1763034502.265940) can0 028002AA#93287FE87FE20104
(1763034502.306567) can0 1200AA01#16700000F0C29440
(1763034502.306649) can0 1200AA02#1670000014C4F13F
(1763034502.307219) can0 028001AA#AF4E80EE7FE700FA
(1763034502.307325) can0 028002AA#933180AE80330104
(1763034502.348201) can0 1200AA01#1670000085CF9440
(1763034502.348318) can0 1200AA02#1670000066F6F13F
(1763034502.348842) can0 028001AA#AF55803880F500FA
(1763034502.348951) can0 028002AA#933880237FCE0104
(1763034502.389827) can0 1200AA01#1670000020D79440
(1763034502.390113) can0 1200AA02#16700000D014F23F
(1763034502.390494) can0 028001AA#AF5B80007F8700FA
(1763034502.390749) can0 028002AA#933C802B81B80104
(1763034502.431724) can0 1200AA01#16700000ADD99440
(1763034502.431752) can0 1200AA02#16700000061FF23F
(1763034502.432346) can0 028001AA#AF5E80497EAF00FA
(1763034502.432507) can0 028002AA#933D7FBB825B0104
(1763034502.473159) can0 1200AA01#16700000ADD99440
(1763034502.473270) can0 1200AA02#16700000061FF23F
(1763034502.473819) can0 028001AA#AF5F80517E7600FA
(1763034502.473981) can0 028002AA#9340804181B20104
(1763034502.514925) can0 1200AA01#16700000ADD99440
(1763034502.514985) can0 1200AA02#16700000061FF23F
(1763034502.515410) can0 028001AA#AF5F80267FCF00FA
(1763034502.515762) can0 028002AA#9341801681360104
