(1761052999.228115) can0 1200AA01#0570000001000000
(1761052999.228584) can0 020001AA#81FF7FF57FFF0111
(1761052999.248577) can0 0300AA01#0000000000000000
(1761052999.248652) can0 1200AA01#16700000808E0D3E
(1761052999.249028) can0 028001AA#81FF7FD57FFF0111
(1761052999.250199) can0 028001AA#81FF7FFB7FF90111
(1761052999.261409) can0 1200AA01#16700000004F233E
(1761052999.261886) can0 028001AA#8200806F80740111
(1761052999.294434) can0 1200AA01#16700000E07A473E
(1761052999.294988) can0 028001AA#81F17E89845E0111
(1761052999.327873) can0 1200AA01#1670000060E1793E
(1761052999.328331) can0 028001AA#81D07E997D200111
(1761052999.361079) can0 1200AA01#16700000D01A9D3E
(1761052999.361539) can0 028001AA#81B47FB07C110111
(1761052999.394322) can0 1200AA01#16700000C004C43E
(1761052999.394812) can0 028001AA#81AA80207F310111
(1761052999.427740) can0 1200AA01#167000001067F13E
(1761052999.428223) can0 028001AA#81BD811A7CA90111
(1761052999.461051) can0 1200AA01#16700000A474123F
(1761052999.461466) can0 028001AA#81EA81C282440111
(1761052999.494329) can0 1200AA01#16700000E0102F3F
(1761052999.494769) can0 028001AA#823682E384410111
(1761052999.528333) can0 1200AA01#16700000584B4E3F
(1761052999.528810) can0 028001AA#82A2847081230111
(1761052999.560984) can0 1200AA01#16700000A8DF6F3F
(1761052999.561471) can0 028001AA#832484DF82530111
(1761052999.594424) can0 1200AA01#1670000088C1893F
(1761052999.594892) can0 028001AA#83C885EB811A0111
(1761052999.627730) can0 1200AA01#16700000A2729C3F
(1761052999.628246) can0 028001AA#848886B182140111
(1761052999.661045) can0 1200AA01#1670000023D9AF3F
(1761052999.661537) can0 028001AA#8564879E836F0111
(1761052999.694335) can0 1200AA01#16700000DCC9C33F
(1761052999.694838) can0 028001AA#865E88A681490111
(1761052999.727812) can0 1200AA01#167000004B19D83F
(1761052999.728208) can0 028001AA#877289DD82520111
(1761052999.761692) can0 1200AA01#167000005C9CEC3F
(1761052999.762183) can0 028001AA#88AC8AC382840111
(1761052999.794340) can0 1200AA01#1670000099940040
(1761052999.794805) can0 028001AA#89EA8ABE828E0111
(1761052999.828134) can0 1200AA01#16700000EFCB0A40
(1761052999.828635) can0 028001AA#8B418B8D82610111
(1761052999.861175) can0 1200AA01#1670000069E11440
(1761052999.861560) can0 028001AA#8C958B58824A0111
(1761052999.894548) can0 1200AA01#16700000B4C31E40
(1761052999.894931) can0 028001AA#8DF48B8F7FCB0111
(1761052999.927729) can0 1200AA01#1670000010632840
(1761052999.928173) can0 028001AA#8F578C12820E0111
(1761052999.960788) can0 1200AA01#1670000071B13140
(1761052999.961261) can0 028001AA#90BE8CA580D30111
(1761052999.994323) can0 1200AA01#1670000073A23A40
(1761052999.994819) can0 028001AA#922A8BFD80E50111
(1761053000.027682) can0 1200AA01#16700000722B4340
(1761053000.028227) can0 028001AA#93968C4980EE0111
(1761053000.061018) can0 1200AA01#1670000062434B40
(1761053000.061525) can0 028001AA#95028BCE81F20111
(1761053000.094252) can0 1200AA01#16700000CBE25240
(1761053000.094816) can0 028001AA#966F8BE981180111
(1761053000.127743) can0 1200AA01#167000009D035A40
(1761053000.128268) can0 028001AA#97DA8C247DC10111
(1761053000.160949) can0 1200AA01#1670000023A16040
(1761053000.161550) can0 028001AA#993F8C4181420111
(1761053000.194240) can0 1200AA01#16700000CBB76640
(1761053000.194833) can0 028001AA#9AA08BD181120111
(1761053000.227751) can0 1200AA01#1670000020456C40
(1761053000.228286) can0 028001AA#9BFF8B7981280111
(1761053000.261024) can0 1200AA01#167000008F477140
(1761053000.261506) can0 028001AA#9D528B6581980111
(1761053000.294304) can0 1200AA01#167000005DBE7540
(1761053000.294817) can0 028001AA#9E9D8B05809C0111
(1761053000.327747) can0 1200AA01#167000007CA97940
(1761053000.328269) can0 028001AA#9FDF8A7C81AA0111
(1761053000.361285) can0 1200AA01#1670000079097D40
(1761053000.361737) can0 028001AA#A11689FB826A0111
(1761053000.394255) can0 1200AA01#167000005BDF7F40
(1761053000.394774) can0 028001AA#A23B89EA83220111
(1761053000.427709) can0 1200AA01#167000004D168140
(1761053000.428228) can0 028001AA#A355896781720111
(1761053000.461050) can0 1200AA01#1670000082F98140
(1761053000.461548) can0 028001AA#A45E883B82350111
(1761053000.494263) can0 1200AA01#16700000539A8240
(1761053000.494782) can0 028001AA#A555880080070111
(1761053000.527938) can0 1200AA01#16700000EAF98240
(1761053000.528506) can0 028001AA#A63B877381A80111
(1761053000.561094) can0 1200AA01#167000007D198340
(1761053000.561539) can0 028001AA#A705863983060111
(1761053000.594313) can0 1200AA01#167000007D198340
(1761053000.594812) can0 028001AA#A7B985EE7F3E0111
(1761053000.627718) can0 1200AA01#167000007D198340
(1761053000.628230) can0 028001AA#A853850080F60111
(1761053000.660971) can0 1200AA01#167000007D198340
(1761053000.661480) can0 028001AA#A8D183A480270111
(1761053000.694304) can0 1200AA01#167000007D198340
(1761053000.694811) can0 028001AA#A9318273822C0111
(1761053000.727750) can0 1200AA01#167000007D198340
(1761053000.728234) can0 028001AA#A97681797CEE0111
(1761053000.761060) can0 1200AA01#167000007D198340
(1761053000.761537) can0 028001AA#A99C8096841C0111
(1761053000.794919) can0 1200AA01#167000007D198340
(1761053000.795372) can0 028001AA#A9AB7FD47E350111
(1761053000.827734) can0 1200AA01#167000007D198340
(1761053000.828258) can0 028001AA#A9B1805C83670111
(1761053000.861021) can0 1200AA01#1670000070388240
(1761053000.861527) can0 028001AA#A9B37FC5831D0111
(1761053000.894331) can0 1200AA01#1670000014318040
(1761053000.894784) can0 028001AA#A9B27FA67DF10111
(1761053000.927694) can0 1200AA01#167000007EFD7A40
(1761053000.928150) can0 028001AA#A9A07E3F7E0C0111
(1761053000.961067) can0 1200AA01#167000003BBC7440
(1761053000.961548) can0 028001AA#A9767E1D7BB70111
(1761053000.994287) can0 1200AA01#1670000064E66D40
(1761053000.994831) can0 028001AA#A92B7C7F848E0111
(1761053001.027657) can0 1200AA01#167000007CAC6640
(1761053001.028151) can0 028001AA#A8C67C4D80780111
(1761053001.061015) can0 1200AA01#16700000CA325F40
(1761053001.061476) can0 028001AA#A8437B607EEB0111
(1761053001.094454) can0 1200AA01#1670000015975740
(1761053001.094877) can0 028001AA#A7A579807E990111
(1761053001.127666) can0 1200AA01#167000005FF44F40
(1761053001.128133) can0 028001AA#A6E8797D7FBC0111
(1761053001.161009) can0 1200AA01#1670000094654840
(1761053001.161513) can0 028001AA#A61077B87C270111
(1761053001.194331) can0 1200AA01#167000005F084140
(1761053001.194816) can0 028001AA#A520777C7F9C0111
(1761053001.227744) can0 1200AA01#16700000E7003A40
(1761053001.228263) can0 028001AA#A42376F57E130111
(1761053001.261504) can0 1200AA01#1670000001803340
(1761053001.261975) can0 028001AA#A31D77857BD20111
(1761053001.294389) can0 1200AA01#1670000094CF2D40
(1761053001.294867) can0 028001AA#A21A77317EAC0111
(1761053001.327760) can0 1200AA01#16700000B1702940
(1761053001.328246) can0 028001AA#A11176E280B10111
(1761053001.360992) can0 1200AA01#167000006B7C2740
(1761053001.361481) can0 028001AA#A00B774C7DD60111
(1761053001.394289) can0 1200AA01#167000006B7C2740
(1761053001.394843) can0 028001AA#9F0D77A77FF10111
(1761053001.427657) can0 1200AA01#167000006B7C2740
(1761053001.428116) can0 028001AA#9E24784C7ECF0111
(1761053001.460919) can0 1200AA01#167000006B7C2740
(1761053001.461477) can0 028001AA#9D5178F47F820111
(1761053001.494319) can0 1200AA01#167000006B7C2740
(1761053001.494887) can0 028001AA#9C9B7AD97DFE0111
(1761053001.527844) can0 1200AA01#167000006B7C2740
(1761053001.528305) can0 028001AA#9C017BC57CBC0111
(1761053001.561127) can0 1200AA01#167000006B7C2740
(1761053001.561629) can0 028001AA#9B867C627F090111
(1761053001.594584) can0 1200AA01#167000006B7C2740
(1761053001.595009) can0 028001AA#9B257D4D7FDD010A
(1761053001.627769) can0 1200AA01#16700000EC192640
(1761053001.628221) can0 028001AA#9AE27E62825B010A
(1761053001.661072) can0 1200AA01#16700000B99B2240
(1761053001.661553) can0 028001AA#9AB67E8B8019010A
(1761053001.694406) can0 1200AA01#1670000074AB1D40
(1761053001.694941) can0 028001AA#9A887E3B7F63010A
(1761053001.727669) can0 1200AA01#1670000020B31740
(1761053001.728194) can0 028001AA#9A4A7D447CA2010A
(1761053001.760963) can0 1200AA01#1670000091FB1040
(1761053001.761521) can0 028001AA#99F37C277DF6010A
(1761053001.794302) can0 1200AA01#16700000A6BA0940
(1761053001.794831) can0 028001AA#99817B5F7DC1010A
(1761053001.828013) can0 1200AA01#16700000E11A0240
(1761053001.828492) can0 028001AA#98F07A947DBA010A
(1761053001.861090) can0 1200AA01#16700000C07FF43F
(1761053001.861587) can0 028001AA#984779C87E7E010A
(1761053001.894255) can0 1200AA01#167000008692E43F
(1761053001.894866) can0 028001AA#978179257E56010A
(1761053001.927634) can0 1200AA01#16700000A9A9D43F
(1761053001.928174) can0 028001AA#96AA78B67DFC010A
(1761053001.961054) can0 1200AA01#16700000B300C53F
(1761053001.961494) can0 028001AA#95C377E37EAB010A
(1761053001.993851) can0 1200AA01#16700000B2D6B53F
(1761053001.994378) can0 028001AA#94D6782F7EDA010A
(1761053002.027690) can0 1200AA01#167000007072A73F
(1761053002.028175) can0 028001AA#93D576F07D52010A
(1761053002.061073) can0 1200AA01#167000001F289A3F
(1761053002.061597) can0 028001AA#92D57765809B010A
(1761053002.094380) can0 1200AA01#16700000E2618E3F
(1761053002.094855) can0 028001AA#91D176D67E4E010A
(1761053002.127793) can0 1200AA01#1670000025AE843F
(1761053002.128250) can0 028001AA#90C777438028010A
(1761053002.160967) can0 1200AA01#1670000051B47B3F
(1761053002.161581) can0 028001AA#8FC077417E8A010A
(1761053002.194342) can0 1200AA01#16700000CD52763F
(1761053002.194851) can0 028001AA#8EBF77528007010A
(1761053002.227667) can0 1200AA01#16700000CD52763F
(1761053002.228209) can0 028001AA#8DCA78207D6D010A
(1761053002.261012) can0 1200AA01#16700000CC52763F
(1761053002.261527) can0 028001AA#8CEA78E47F45010A
(1761053002.294305) can0 1200AA01#16700000CD52763F
(1761053002.294862) can0 028001AA#8C2479937F70010A
(1761053002.327727) can0 1200AA01#16700000CD52763F
(1761053002.328246) can0 028001AA#8B7C7ACA7E6F010A
(1761053002.361141) can0 1200AA01#16700000CD52763F
(1761053002.361656) can0 028001AA#8AEF7BAF7E34010A
(1761053002.394376) can0 1200AA01#16700000CD52763F
(1761053002.394987) can0 028001AA#8A807C337DFD010A
(1761053002.427828) can0 1200AA01#16700000CD52763F
(1761053002.428404) can0 028001AA#8A2D7D8E8131010A
(1761053002.461200) can0 1200AA01#16700000CE52763F
(1761053002.461650) can0 028001AA#89F47ED87E62010A
(1761053002.494396) can0 1200AA01#16700000CD52763F
(1761053002.494909) can0 028001AA#89DA7F427E44010A
(1761053002.527829) can0 1200AA01#16700000CD52763F
(1761053002.528321) can0 028001AA#89D27F887FDD010A
(1761053002.561117) can0 1200AA01#16700000545A713F
(1761053002.561596) can0 028001AA#89D080677FF6010A
(1761053002.594418) can0 1200AA01#1670000058B1663F
(1761053002.594954) can0 028001AA#89C97FB48035010A
(1761053002.627798) can0 1200AA01#167000007D38593F
(1761053002.628297) can0 028001AA#89B67F2B791E010A
(1761053002.660989) can0 1200AA01#1670000030274A3F
(1761053002.661468) can0 028001AA#89877D688259010A
(1761053002.694555) can0 1200AA01#16700000E4263A3F
(1761053002.695029) can0 028001AA#893D7D227BA3010A
(1761053002.728109) can0 1200AA01#167000008CA2293F
(1761053002.728662) can0 028001AA#88D87CB97EC2010A
(1761053002.760989) can0 1200AA01#1670000052E5183F
(1761053002.761548) can0 028001AA#88647BB57D17010A
(1761053002.794248) can0 1200AA01#16700000C228083F
(1761053002.794777) can0 028001AA#87E17B917CD9010A
(1761053002.827708) can0 1200AA01#16700000B038EF3E
(1761053002.828131) can0 028001AA#87557B057F23010A
(1761053002.861162) can0 1200AA01#16700000D3D3CE3E
(1761053002.861642) can0 028001AA#86C37B0D7E19010A
(1761053002.894523) can0 1200AA01#167000004471AF3E
(1761053002.894962) can0 028001AA#862C7AB47DDE010A
(1761053002.928139) can0 1200AA01#16700000515E913E
(1761053002.928602) can0 028001AA#85927AAC7EE6010A
(1761053002.961174) can0 1200AA01#1670000014D6693E
(1761053002.961692) can0 028001AA#84F97AEF7FF3010A
(1761053002.994383) can0 1200AA01#16700000BDDB343E
(1761053002.994830) can0 028001AA#845F7ABA7F57010A
(1761053003.027775) can0 1200AA01#16700000728F043E
(1761053003.028250) can0 028001AA#83C47AC0808E010A
(1761053003.060925) can0 1200AA01#16700000F6A3B33D
(1761053003.061428) can0 028001AA#832E7AC07ED9010A
(1761053003.094352) can0 1200AA01#16700000F0C2563D
(1761053003.094778) can0 028001AA#829C7B7B7DA8010A
(1761053003.127691) can0 1200AA01#16700000ADC8CB3C
(1761053003.128124) can0 028001AA#820F7B347FEE010A
(1761053003.160985) can0 1200AA01#16700000F5C0DA3B
(1761053003.161471) can0 028001AA#818C7BF27E1C010A
(1761053003.194256) can0 1200AA01#1670000000000000
(1761053003.194783) can0 028001AA#81147C2C82F8010A
(1761053003.227646) can0 1200AA01#1670000060220EBC
(1761053003.228134) can0 028001AA#80AE7D1083F2010A
(1761053003.261278) can0 1200AA01#1670000018F308BD
(1761053003.261779) can0 028001AA#80597D84814A010A
(1761053003.294482) can0 1200AA01#16700000364A7CBD
(1761053003.294939) can0 028001AA#80197D797D89010A
(1761053003.327802) can0 1200AA01#1670000056E99CBD
(1761053003.328270) can0 028001AA#7FD97D647FF5010A
(1761053003.361201) can0 1200AA01#1670000065B798BD
(1761053003.361754) can0 028001AA#7F9B7DE97F3A010A
(1761053003.394466) can0 1200AA01#1670000080DD70BD
(1761053003.395065) can0 028001AA#7F677E6281EB010A
(1761053003.427824) can0 1200AA01#16700000066407BD
(1761053003.428343) can0 028001AA#7F4B7F607C10010A
(1761053003.461118) can0 1200AA01#1670000000000000
(1761053003.461629) can0 028001AA#7F4B800D80F7010A
(1761053003.494567) can0 1200AA01#16700000808A933C
(1761053003.495078) can0 028001AA#7F6481667ED9010A
(1761053003.527822) can0 1200AA01#1670000000F4083B
(1761053003.528388) can0 028001AA#7F9B82B681C1010A
(1761053003.561323) can0 1200AA01#16700000A0AA35BD
(1761053003.561804) can0 028001AA#7FD281AA803F010A
(1761053003.594478) can0 1200AA01#1670000090F9F0BD
(1761053003.595048) can0 028001AA#7FF080AC8050010A
(1761053003.627749) can0 1200AA01#1670000000205BBE
(1761053003.628264) can0 028001AA#7FF37FCE7D05010A
(1761053003.660970) can0 1200AA01#16700000F49BA8BE
(1761053003.661556) can0 028001AA#7FDC7EAA80AB010A
(1761053003.694346) can0 1200AA01#167000009C45EBBE
(1761053003.694813) can0 028001AA#7FAA7D7779D1010A
(1761053003.727716) can0 1200AA01#167000003CB419BF
(1761053003.728252) can0 028001AA#7F567C528112010A
(1761053003.761021) can0 1200AA01#167000008E6F3FBF
(1761053003.761550) can0 028001AA#7EE87BA07E94010A
(1761053003.794328) can0 1200AA01#16700000EEC465BF
(1761053003.794884) can0 028001AA#7E5C7B5E7EBA010A
(1761053003.827741) can0 1200AA01#1670000050D585BF
(1761053003.828242) can0 028001AA#7DB379CB7F55010A
(1761053003.861081) can0 1200AA01#16700000F80F98BF
(1761053003.861574) can0 028001AA#7CEC78F97F6B010A
(1761053003.894393) can0 1200AA01#16700000E117A9BF
(1761053003.894990) can0 028001AA#7C0A784A7D0E010A
(1761053003.927808) can0 1200AA01#167000006579B8BF
(1761053003.928338) can0 028001AA#7B0A77247D1B010A
(1761053003.961116) can0 1200AA01#16700000A2C8C5BF
(1761053003.961629) can0 028001AA#79EC761F7F3B010A
(1761053003.994499) can0 1200AA01#167000001DA2D0BF
(1761053003.994993) can0 028001AA#78B475207D92010A
(1761053004.027538) can0 1200AA01#1670000035ABD8BF
(1761053004.028043) can0 028001AA#777175407DC9010A
(1761053004.061044) can0 1200AA01#1670000004A4DEBF
(1761053004.061519) can0 028001AA#762B74D97D42010A
(1761053004.094351) can0 1200AA01#16700000C88FE3BF
(1761053004.094884) can0 028001AA#74F475CD7CD7010A
(1761053004.127922) can0 1200AA01#16700000837FE7BF
(1761053004.128436) can0 028001AA#73CA76B97CCF010A
(1761053004.161089) can0 1200AA01#167000007384EABF
(1761053004.161522) can0 028001AA#72B577827DDF010A
(1761053004.194434) can0 1200AA01#16700000FEAFECBF
(1761053004.194968) can0 028001AA#71B177997EEF010A
(1761053004.227730) can0 1200AA01#16700000BA13EEBF
(1761053004.228263) can0 028001AA#70C5788C807F010A
(1761053004.261023) can0 1200AA01#167000006FC1EEBF
(1761053004.261484) can0 028001AA#6FEF7935800F010A
(1761053004.294814) can0 1200AA01#16700000FDCAEEBF
(1761053004.295332) can0 028001AA#6F2F7A467EB0010A
(1761053004.327730) can0 1200AA01#167000007142EEBF
(1761053004.328216) can0 028001AA#6E8F7B537BEB010A
(1761053004.360953) can0 1200AA01#16700000F839EDBF
(1761053004.361477) can0 028001AA#6E0A7BDB7ED7010A
(1761053004.394228) can0 1200AA01#16700000D0C3EBBF
(1761053004.394708) can0 028001AA#6DA57D0C7FBF010A
(1761053004.427659) can0 1200AA01#1670000059F2E9BF
(1761053004.428203) can0 028001AA#6D697E797F11010A
(1761053004.460991) can0 1200AA01#16700000FED7E7BF
(1761053004.461488) can0 028001AA#6D52800D7BD3010A
(1761053004.494274) can0 1200AA01#167000003C87E5BF
(1761053004.494896) can0 028001AA#6D57812B7D51010A
(1761053004.527653) can0 1200AA01#167000009B12E3BF
(1761053004.528176) can0 028001AA#6D75809E824B010A
(1761053004.561242) can0 1200AA01#16700000AA8CE0BF
(1761053004.561712) can0 028001AA#6D9F819F817F010A
(1761053004.594368) can0 1200AA01#16700000F707DEBF
(1761053004.594857) can0 028001AA#6DCC816B80AF010A
(1761053004.627697) can0 1200AA01#167000001297DBBF
(1761053004.628182) can0 028001AA#6E0081C081A3010A
(1761053004.661238) can0 1200AA01#16700000844CD9BF
(1761053004.661731) can0 028001AA#6E3180F881A5010A
(1761053004.694349) can0 1200AA01#16700000CA3AD7BF
(1761053004.694909) can0 028001AA#6E6180D38597010A
(1761053004.743668) can0 1200AA01#167000005774D5BF
(1761053004.744126) can0 028001AA#6EAC81717FE3010A
(1761053004.776241) can0 1200AA01#16700000880BD4BF
(1761053004.776831) can0 028001AA#6ED080CF7EC9010A
(1761053004.794669) can0 1200AA01#16700000A512D3BF
(1761053004.795168) can0 028001AA#6EE381728570010A
(1761053004.827878) can0 1200AA01#16700000A8CFD1BF
(1761053004.828371) can0 028001AA#6F078117869C010A
(1761053004.861045) can0 1200AA01#16700000F082CFBF
(1761053004.861601) can0 028001AA#6F297FF77F98010A
(1761053004.894236) can0 1200AA01#167000008036CCBF
(1761053004.894769) can0 028001AA#6F478136813E010A
(1761053004.927587) can0 1200AA01#1670000054F4C7BF
(1761053004.928092) can0 028001AA#6F6B80BD7FF9010A
(1761053004.961127) can0 1200AA01#1670000064C6C2BF
(1761053004.961555) can0 028001AA#6F9B821381BE010A
(1761053004.994470) can0 1200AA01#1670000094B6BCBF
(1761053004.994944) can0 028001AA#6FDA82957E87010A
(1761053005.027558) can0 1200AA01#16700000F4CEB5BF
(1761053005.028083) can0 028001AA#7022821884D0010A
(1761053005.061054) can0 1200AA01#167000006019AEBF
(1761053005.061490) can0 028001AA#707B82DE8216010A
(1761053005.094330) can0 1200AA01#16700000EC9FA5BF
(1761053005.094740) can0 028001AA#70DF83D580D5010A
(1761053005.127856) can0 1200AA01#167000006C6C9CBF
(1761053005.128282) can0 028001AA#7151842D8203010A
(1761053005.161005) can0 1200AA01#16700000F08892BF
(1761053005.161539) can0 028001AA#71CC84538161010A
(1761053005.194867) can0 1200AA01#1670000074FF87BF
(1761053005.195365) can0 028001AA#725484B481BB010A
(1761053005.227676) can0 1200AA01#16700000B8B379BF
(1761053005.228152) can0 028001AA#72E68565818B010A
(1761053005.261187) can0 1200AA01#16700000484462BF
(1761053005.261684) can0 028001AA#7387857B8021010A
(1761053005.294352) can0 1200AA01#1670000090C449BF
(1761053005.294872) can0 028001AA#742D86048379010A
(1761053005.328081) can0 1200AA01#167000006C4830BF
(1761053005.328629) can0 028001AA#74E285EC80F8010A
(1761053005.377307) can0 1200AA01#16700000E0E315BF
(1761053005.377756) can0 028001AA#75FC861081CC010A
(1761053005.412608) can0 1200AA01#167000008855F5BE
(1761053005.413091) can0 028001AA#76C68632821E0111
(1761053005.427677) can0 1200AA01#167000002862BDBE
(1761053005.428145) can0 028001AA#772086B080DB010A
(1761053005.461037) can0 1200AA01#16700000681584BE
(1761053005.461529) can0 028001AA#77E986EF80BB0111
(1761053005.494354) can0 1200AA01#16700000702E13BE
(1761053005.494787) can0 028001AA#78C787F17FAC0111
(1761053005.528218) can0 1200AA01#1670000000F5E0BC
(1761053005.528719) can0 028001AA#79B487807FAF010A
(1761053005.562700) can0 1200AA01#167000003069B93D
(1761053005.563133) can0 028001AA#7AAF8789801A010A
(1761053005.594837) can0 1200AA01#16700000E8FB563E
(1761053005.595337) can0 028001AA#7BA0887C8139010A
(1761053005.627629) can0 1200AA01#167000008833A93E
(1761053005.628170) can0 028001AA#7C9B88A58320010A
(1761053005.660999) can0 1200AA01#167000006853E73E
(1761053005.661512) can0 028001AA#7DA288AD836B010A
(1761053005.698742) can0 1200AA01#16700000D0DA123F
(1761053005.699234) can0 028001AA#7ED188CD7F1C010A
(1761053005.727569) can0 1200AA01#167000002C19323F
(1761053005.728055) can0 028001AA#7FBB893082F5010A
(1761053005.761311) can0 1200AA01#16700000DC50513F
(1761053005.761827) can0 028001AA#80D289B37F53010A
(1761053005.794377) can0 1200AA01#16700000F26D703F
(1761053005.794903) can0 028001AA#81E8897D80CB010A
(1761053005.828375) can0 1200AA01#1670000042AE873F
(1761053005.828877) can0 028001AA#830C8962813F010A
(1761053005.861017) can0 1200AA01#167000005004973F
(1761053005.861566) can0 028001AA#8426899881A4010A
(1761053005.894367) can0 1200AA01#167000002B2FA63F
(1761053005.894823) can0 028001AA#854989E383CD010A
(1761053005.927673) can0 1200AA01#16700000DF24B53F
(1761053005.928202) can0 028001AA#866E8994831C010A
(1761053005.960921) can0 1200AA01#1670000078DBC33F
(1761053005.961501) can0 028001AA#87958A3081F3010A
(1761053006.010584) can0 1200AA01#16700000FA48D23F
(1761053006.011105) can0 028001AA#894C89F57F69010A
(1761053006.042654) can0 1200AA01#167000006E63E03F
(1761053006.043261) can0 028001AA#8A6289847F9D010A
(1761053006.075702) can0 1200AA01#16700000E220EE3F
(1761053006.076136) can0 028001AA#8B7D89CD7F44010A
(1761053006.094262) can0 1200AA01#167000005D77FB3F
(1761053006.094787) can0 028001AA#8C1B89347FC1010A
(1761053006.127662) can0 1200AA01#16700000732E0440
(1761053006.128131) can0 028001AA#8D3F89C17FA8010A
(1761053006.160936) can0 1200AA01#16700000C5630A40
(1761053006.161519) can0 028001AA#8E648A2C813B010A
(1761053006.194401) can0 1200AA01#16700000A9561040
(1761053006.194909) can0 028001AA#8F8989868047010A
(1761053006.227743) can0 1200AA01#1670000022021640
(1761053006.228194) can0 028001AA#90AA89718246010A
(1761053006.260951) can0 1200AA01#1670000037611B40
(1761053006.261445) can0 028001AA#91C5897A814C010A
(1761053006.294373) can0 1200AA01#16700000EA6E2040
(1761053006.294796) can0 028001AA#92E089708153010A
(1761053006.327600) can0 1200AA01#1670000042262540
(1761053006.328174) can0 028001AA#93F2896681EC010A
(1761053006.360904) can0 1200AA01#1670000042822940
(1761053006.361428) can0 028001AA#950089317DE3010A
(1761053006.394342) can0 1200AA01#16700000EF7D2D40
(1761053006.394847) can0 028001AA#960588778140010A
(1761053006.427724) can0 1200AA01#167000004F143140
(1761053006.428169) can0 028001AA#97018841826D010A
(1761053006.460989) can0 1200AA01#1670000065403440
(1761053006.461498) can0 028001AA#97F488138086010A
(1761053006.494341) can0 1200AA01#1670000037FD3640
(1761053006.494846) can0 028001AA#98DD87368174010A
(1761053006.527593) can0 1200AA01#16700000C9453940
(1761053006.528098) can0 028001AA#99B787278035010A
(1761053006.561603) can0 1200AA01#167000001E153B40
(1761053006.562063) can0 028001AA#9A8986A3828F010A
(1761053006.594580) can0 1200AA01#167000003D663C40
(1761053006.595070) can0 028001AA#9B4786A97FCA010A
(1761053006.627736) can0 1200AA01#167000002C343D40
(1761053006.628261) can0 028001AA#9BF485C37FB1010A
(1761053006.661011) can0 1200AA01#16700000EB793D40
(1761053006.661493) can0 028001AA#9C8E84B18027010A
(1761053006.694283) can0 1200AA01#1670000060563C40
(1761053006.694843) can0 028001AA#9D1383CD81D9010A
(1761053006.728252) can0 1200AA01#1670000030103940
(1761053006.728849) can0 028001AA#9D7A82B47F98010A
(1761053006.761915) can0 1200AA01#1670000001DE3340
(1761053006.762344) can0 028001AA#9DBB81AB86AD010A
(1761053006.795177) can0 1200AA01#1670000082F62C40
(1761053006.795727) can0 028001AA#9DE0803D804C010A
(1761053006.842749) can0 1200AA01#167000005B902440
(1761053006.843208) can0 028001AA#9DE37FFF8090010A
(1761053006.876826) can0 1200AA01#1670000038E21A40
(1761053006.877359) can0 028001AA#9DC17E677E2A010A
(1761053006.910624) can0 1200AA01#16700000C0221040
(1761053006.911081) can0 028001AA#9D807D7B7C75010A
(1761053006.927667) can0 1200AA01#16700000A2880440
(1761053006.928175) can0 028001AA#9D547C847D63010A
(1761053006.961074) can0 1200AA01#167000000A95F03F
(1761053006.961557) can0 028001AA#9CE77B747EB3010A
(1761053006.994414) can0 1200AA01#16700000243ED73F
(1761053006.994858) can0 028001AA#9C5F7B4F7DCD010A
(1761053007.027684) can0 1200AA01#16700000EB79BD3F
(1761053007.028083) can0 028001AA#9BB87A1E80B7010A
(1761053007.061164) can0 1200AA01#16700000B1B5A33F
(1761053007.061597) can0 028001AA#9AF3797F7E71010A
(1761053007.094450) can0 1200AA01#16700000CE5E8A3F
(1761053007.094867) can0 028001AA#9A1477E17D1A010A
(1761053007.127546) can0 1200AA01#1670000022C5633F
(1761053007.128081) can0 028001AA#9919778C7E73010A
(1761053007.160977) can0 1200AA01#16700000A75C353F
(1761053007.161447) can0 028001AA#97FE75B07E89010A
(1761053007.194306) can0 1200AA01#16700000CD5E0A3F
(1761053007.194827) can0 028001AA#96C774B77DB3010A
(1761053007.227647) can0 1200AA01#167000007E4CC73E
(1761053007.228087) can0 028001AA#9575741D7CBC010A
(1761053007.260999) can0 1200AA01#167000004C1B843E
(1761053007.261503) can0 028001AA#9404732F80DD010A
(1761053007.294917) can0 1200AA01#16700000AABE193E
(1761053007.295443) can0 028001AA#927171EB7BF5010A
(1761053007.327788) can0 1200AA01#16700000AA378D3D
(1761053007.328181) can0 028001AA#90CE71977B76010A
(1761053007.360928) can0 1200AA01#16700000D8C5913C
(1761053007.361483) can0 028001AA#8F1270FB7F58010A
(1761053007.394247) can0 1200AA01#1670000000000000
(1761053007.394786) can0 028001AA#8D5D719C7EA2010A
(1761053007.427974) can0 1200AA01#16700000C34D063E
(1761053007.428467) can0 028001AA#8BB3724D7EC3010A
(1761053007.461000) can0 1200AA01#16700000C34D063E
(1761053007.461503) can0 028001AA#8A3573F37E37010A
