(1769184375.249741) can0 1200AA7F#0570000001000000
(1769184375.250236) can0 02007FAA#7A247FFF7FFF0104
(1769184375.269893) can0 0300AA7F#0000000000000000
(1769184375.270193) can0 1200AA7F#167000002A5A5FC0
(1769184375.270419) can0 02807FAA#7A247FFF7FFF0104
(1769184375.271771) can0 02807FAA#7A247FFF7FCC0104
(1769184375.272989) can0 1200AA7F#1670000037995DC0
(1769184375.273544) can0 02807FAA#7A247FFF7FFC0104
(1769184375.299772) can0 1200AA7F#1670000037995DC0
(1769184375.300339) can0 02807FAA#7A227FC57F260104
(1769184375.304559) can0 1200AA7F#16700000C8CD5BC0
(1769184375.305099) can0 02807FAA#7A217FC67EDA0104
(1769184375.320480) can0 1200AA7F#16700000C8CD5BC0
(1769184375.321009) can0 02807FAA#7A1B7F8F7DD20104
(1769184375.345338) can0 1200AA7F#1670000021F859C0
(1769184375.345983) can0 02807FAA#7A057EC47E580104
(1769184375.370097) can0 1200AA7F#1670000021F859C0
(1769184375.370686) can0 02807FAA#79E07E4E7F1C0104
(1769184375.386995) can0 1200AA7F#16700000871858C0
(1769184375.387566) can0 02807FAA#79C07E567DCE0104
(1769184375.399647) can0 1200AA7F#16700000871858C0
(1769184375.400248) can0 02807FAA#79A27D3780310104
(1769184375.429262) can0 1200AA7F#16700000402F56C0
(1769184375.429826) can0 02807FAA#794F7CE17D410104
(1769184375.442028) can0 1200AA7F#16700000402F56C0
(1769184375.442593) can0 02807FAA#79217C527FC50104
(1769184375.470259) can0 1200AA7F#16700000903C54C0
(1769184375.470828) can0 02807FAA#78B17BA2800D0104
(1769184375.484870) can0 1200AA7F#16700000903C54C0
(1769184375.485386) can0 02807FAA#78717B197F300104
(1769184375.512002) can0 1200AA7F#16700000BB4052C0
(1769184375.512569) can0 02807FAA#77E97B277DEB0104
(1769184375.546864) can0 1200AA7F#16700000BB4052C0
(1769184375.547404) can0 02807FAA#771D79E07E3C0104
(1769184375.559622) can0 1200AA7F#16700000093C50C0
(1769184375.560148) can0 02807FAA#76CA79B27E830104
(1769184375.571015) can0 1200AA7F#16700000093C50C0
(1769184375.571621) can0 02807FAA#767C79967E9C0104
(1769184375.599736) can0 1200AA7F#16700000BA2E4EC0
(1769184375.600270) can0 02807FAA#75AB788B7E600104
(1769184375.620656) can0 1200AA7F#16700000BA2E4EC0
(1769184375.621189) can0 02807FAA#750477FB7E6E0104
(1769184375.639672) can0 1200AA7F#1670000016194CC0
(1769184375.640222) can0 02807FAA#7462777D7F830104
(1769184375.650615) can0 1200AA7F#1670000016194CC0
(1769184375.651152) can0 02807FAA#740277457FB80104
(1769184375.680405) can0 1200AA7F#1670000061FB49C0
(1769184375.681015) can0 02807FAA#72EA76A97E7B0104
(1769184375.690499) can0 1200AA7F#1670000061FB49C0
(1769184375.691076) can0 02807FAA#728676657ED50104
(1769184375.721202) can0 1200AA7F#16700000E1D547C0
(1769184375.721773) can0 02807FAA#7146754E7F3F0104
(1769184375.732519) can0 1200AA7F#16700000E1D547C0
(1769184375.733074) can0 02807FAA#70CA75177EF10104
(1769184375.762366) can0 1200AA7F#16700000D8A845C0
(1769184375.762912) can0 02807FAA#6F7274417F150104
(1769184375.799938) can0 1200AA7F#16700000D8A845C0
(1769184375.800483) can0 02807FAA#6DA473967F990104
(1769184375.804244) can0 1200AA7F#167000008F7443C0
(1769184375.804767) can0 02807FAA#6D6E73FA7F640104
(1769184375.820589) can0 1200AA7F#167000008F7443C0
(1769184375.821114) can0 02807FAA#6CA473AF7F950104
(1769184375.845261) can0 1200AA7F#16700000463941C0
(1769184375.845809) can0 02807FAA#6B7C74A77FCE0104
(1769184375.866069) can0 1200AA7F#16700000463941C0
(1769184375.866615) can0 02807FAA#6A8D74DF7FC10104
(1769184375.887006) can0 1200AA7F#1670000046F73EC0
(1769184375.887579) can0 02807FAA#69A975877EFC0104
(1769184375.907538) can0 1200AA7F#1670000046F73EC0
(1769184375.908061) can0 02807FAA#68D776667EDD0104
(1769184375.928692) can0 1200AA7F#16700000D3AE3CC0
(1769184375.929275) can0 02807FAA#680C76827F9F0104
(1769184375.950365) can0 1200AA7F#16700000D3AE3CC0
(1769184375.950953) can0 02807FAA#674B77467FDF0104
(1769184375.970258) can0 1200AA7F#167000002F603AC0
(1769184375.970404) can0 1200AA7F#167000002F603AC0
(1769184375.970880) can0 02807FAA#66A878147F540104
(1769184375.971027) can0 02807FAA#66A678147F6A0104
(1769184376.013477) can0 1200AA7F#16700000A10B38C0
(1769184376.014017) can0 02807FAA#65717A1B7F4E0104
(1769184376.020769) can0 1200AA7F#16700000A10B38C0
(1769184376.021278) can0 02807FAA#654379AD7F6D0104
(1769184376.053578) can0 1200AA7F#167000006FB135C0
(1769184376.054110) can0 02807FAA#648D7ACC7F6D0104
(1769184376.064895) can0 1200AA7F#167000006FB135C0
(1769184376.065436) can0 02807FAA#64577BD47E850104
(1769184376.095551) can0 1200AA7F#16700000DB5133C0
(1769184376.096111) can0 02807FAA#63E07C8C80890104
(1769184376.120080) can0 1200AA7F#16700000DB5133C0
(1769184376.120633) can0 02807FAA#639A7D317FD60104
(1769184376.137024) can0 1200AA7F#167000002BED30C0
(1769184376.137542) can0 02807FAA#63727DD780970104
(1769184376.160098) can0 1200AA7F#167000002BED30C0
(1769184376.160617) can0 02807FAA#634C7E887F280104
(1769184376.179039) can0 1200AA7F#16700000A5832EC0
(1769184376.179583) can0 02807FAA#63357F1D7F180104
(1769184376.199583) can0 1200AA7F#16700000A5832EC0
(1769184376.200139) can0 02807FAA#63287FA57F8C0104
(1769184376.220553) can0 1200AA7F#167000008C152CC0
(1769184376.221095) can0 02807FAA#632680027F840104
(1769184376.257541) can0 1200AA7F#167000008C152CC0
(1769184376.258046) can0 02807FAA#633D813B808F0104
(1769184376.262254) can0 1200AA7F#1670000028A329C0
(1769184376.262804) can0 02807FAA#6343816A80970104
(1769184376.280700) can0 1200AA7F#1670000028A329C0
(1769184376.281235) can0 02807FAA#635F81BC7FD90104
(1769184376.304118) can0 1200AA7F#16700000B92C27C0
(1769184376.304639) can0 02807FAA#638E826581B50104
(1769184376.326938) can0 1200AA7F#16700000B92C27C0
(1769184376.327495) can0 02807FAA#63CA827E81F80104
(1769184376.345417) can0 1200AA7F#1670000087B224C0
(1769184376.346020) can0 02807FAA#6405837D800B0104
(1769184376.359632) can0 1200AA7F#1670000087B224C0
(1769184376.360207) can0 02807FAA#6433833782690104
(1769184376.389898) can0 1200AA7F#16700000D73422C0
(1769184376.390452) can0 02807FAA#649E83D180D00104
(1769184376.405751) can0 1200AA7F#16700000D73422C0
(1769184376.406315) can0 02807FAA#64D7830580C50104
(1769184376.428703) can0 1200AA7F#16700000EFB31FC0
(1769184376.429249) can0 02807FAA#6524836B7F220104
(1769184376.449686) can0 1200AA7F#16700000EFB31FC0
(1769184376.450209) can0 02807FAA#6566833E809D0104
(1769184376.470702) can0 1200AA7F#1670000010301DC0
(1769184376.471253) can0 02807FAA#65A8832081410104
(1769184376.497765) can0 1200AA7F#1670000010301DC0
(1769184376.498321) can0 02807FAA#65F882DD817B0104
(1769184376.513866) can0 1200AA7F#1670000080A91AC0
(1769184376.514431) can0 02807FAA#662A82E97FA10104
(1769184376.524754) can0 1200AA7F#1670000080A91AC0
(1769184376.525280) can0 02807FAA#6648826581D10104
(1769184376.554362) can0 1200AA7F#16700000842018C0
(1769184376.554911) can0 02807FAA#669B823481350104
(1769184376.570073) can0 1200AA7F#16700000842018C0
(1769184376.570622) can0 02807FAA#66C582BF7FC50104
(1769184376.600041) can0 1200AA7F#16700000649515C0
(1769184376.600622) can0 02807FAA#671582D580840104
(1769184376.616660) can0 1200AA7F#16700000649515C0
(1769184376.617265) can0 02807FAA#674182937FA60104
(1769184376.637406) can0 1200AA7F#16700000600813C0
(1769184376.638012) can0 02807FAA#677582B480530104
(1769184376.661190) can0 1200AA7F#16700000600813C0
(1769184376.661608) can0 02807FAA#67B1825781ED0104
(1769184376.678732) can0 1200AA7F#16700000BF7910C0
(1769184376.679312) can0 02807FAA#67DF826880FD0104
(1769184376.695805) can0 1200AA7F#16700000BF7910C0
(1769184376.696344) can0 02807FAA#680A822E81D40104
(1769184376.720386) can0 1200AA7F#16700000C5E90DC0
(1769184376.720962) can0 02807FAA#684B82BA7F560104
(1769184376.749505) can0 1200AA7F#16700000C5E90DC0
(1769184376.750062) can0 02807FAA#6894829381F90104
(1769184376.762072) can0 1200AA7F#16700000BB580BC0
(1769184376.762592) can0 02807FAA#68B682827F640104
(1769184376.770846) can0 1200AA7F#16700000BB580BC0
(1769184376.771418) can0 02807FAA#68CA826681AA0104
(1769184376.809885) can0 1200AA7F#16700000E1C608C0
(1769184376.810466) can0 02807FAA#692C823380F60104
(1769184376.819706) can0 1200AA7F#16700000E1C608C0
(1769184376.820245) can0 02807FAA#6944826581F80104
(1769184376.845290) can0 1200AA7F#167000007D3406C0
(1769184376.845864) can0 02807FAA#69828288818F0104
(1769184376.861187) can0 1200AA7F#167000007D3406C0
(1769184376.861698) can0 02807FAA#69AA828581290104
(1769184376.887921) can0 1200AA7F#16700000D5A103C0
(1769184376.888447) can0 02807FAA#69EF82B9802F0104
(1769184376.905543) can0 1200AA7F#16700000D5A103C0
(1769184376.906154) can0 02807FAA#6A1B82937ED70104
(1769184376.929832) can0 1200AA7F#167000002B0F01C0
(1769184376.930404) can0 02807FAA#6A59829A80590104
(1769184376.951076) can0 1200AA7F#167000002B0F01C0
(1769184376.951608) can0 02807FAA#6A8D825E82140104
(1769184376.970337) can0 1200AA7F#167000008AF9FCBF
(1769184376.970908) can0 02807FAA#6ABF828F807F0104
(1769184376.982070) can0 1200AA7F#167000008AF9FCBF
(1769184376.982611) can0 02807FAA#6ADC820480160104
(1769184377.012274) can0 1200AA7F#16700000DAD5F7BF
(1769184377.012862) can0 02807FAA#6B2A82CE7E700104
(1769184377.025822) can0 1200AA7F#16700000DAD5F7BF
(1769184377.026357) can0 02807FAA#6B4A8268820E0104
(1769184377.054110) can0 1200AA7F#16700000C2B3F2BF
(1769184377.054658) can0 02807FAA#6B938212805F0104
(1769184377.070811) can0 1200AA7F#16700000C2B3F2BF
(1769184377.071358) can0 02807FAA#6BBC8266802E0104
(1769184377.095415) can0 1200AA7F#16700000CE93EDBF
(1769184377.095957) can0 02807FAA#6BFA822E82130104
(1769184377.116145) can0 1200AA7F#16700000CE93EDBF
(1769184377.116606) can0 02807FAA#6C2E82A180400104
(1769184377.139668) can0 1200AA7F#167000009276E8BF
(1769184377.140202) can0 02807FAA#6C6A8281807B0104
(1769184377.162088) can0 1200AA7F#167000009276E8BF
(1769184377.162631) can0 02807FAA#6CA3825D80820104
(1769184377.178744) can0 1200AA7F#167000008A5CE3BF
(1769184377.179305) can0 02807FAA#6CCB826581990104
(1769184377.191385) can0 1200AA7F#167000008A5CE3BF
(1769184377.191962) can0 02807FAA#6CEA827280C10104
(1769184377.221388) can0 1200AA7F#167000004246DEBF
(1769184377.221937) can0 02807FAA#6D35826781040104
(1769184377.239903) can0 1200AA7F#167000004246DEBF
(1769184377.240396) can0 02807FAA#6D6381F681EF0104
(1769184377.262639) can0 1200AA7F#167000005234D9BF
(1769184377.263209) can0 02807FAA#6D9D828280B20104
(1769184377.289782) can0 1200AA7F#167000005234D9BF
(1769184377.290308) can0 02807FAA#6DE1829D809E0104
(1769184377.303688) can0 1200AA7F#167000003227D4BF
(1769184377.304240) can0 02807FAA#6E0582AC7EF20104
(1769184377.319742) can0 1200AA7F#167000003227D4BF
(1769184377.320245) can0 02807FAA#6E2B829C80C60104
(1769184377.349792) can0 1200AA7F#16700000721FCFBF
(1769184377.350357) can0 02807FAA#6E7681FE81810104
(1769184377.370567) can0 1200AA7F#16700000721FCFBF
(1769184377.371086) can0 02807FAA#6EA9829D80500104
(1769184377.387887) can0 1200AA7F#167000009E1DCABF
(1769184377.388434) can0 02807FAA#6ED38231823D0104
(1769184377.401216) can0 1200AA7F#167000009E1DCABF
(1769184377.401714) can0 02807FAA#6EF4826581AD0104
(1769184377.428858) can0 1200AA7F#167000003F22C5BF
(1769184377.429392) can0 02807FAA#6F37829A81700104
(1769184377.450632) can0 1200AA7F#167000003F22C5BF
(1769184377.451162) can0 02807FAA#6F6F829A7FA30104
(1769184377.470542) can0 1200AA7F#16700000DA2DC0BF
(1769184377.471089) can0 02807FAA#6FA0829A804E0104
(1769184377.499474) can0 1200AA7F#16700000DA2DC0BF
(1769184377.500063) can0 02807FAA#6FE7826281C80104
(1769184377.512146) can0 1200AA7F#16700000FF40BBBF
(1769184377.512704) can0 02807FAA#7007826580950104
(1769184377.520391) can0 1200AA7F#16700000FF40BBBF
(1769184377.520940) can0 02807FAA#701C829D80330104
(1769184377.559694) can0 1200AA7F#16700000325CB6BF
(1769184377.560244) can0 02807FAA#707D828F7FF60104
(1769184377.570459) can0 1200AA7F#16700000325CB6BF
(1769184377.570997) can0 02807FAA#709581F6822B0104
(1769184377.596076) can0 1200AA7F#167000000B80B1BF
(1769184377.596652) can0 02807FAA#70D382727E7D0104
(1769184377.619654) can0 1200AA7F#167000000B80B1BF
(1769184377.620198) can0 02807FAA#710982AA80660104
(1769184377.636996) can0 1200AA7F#16700000F7ACACBF
(1769184377.637543) can0 02807FAA#7135829D7F0E0104
(1769184377.649677) can0 1200AA7F#16700000F7ACACBF
(1769184377.650228) can0 02807FAA#7152824A812A0104
(1769184377.679614) can0 1200AA7F#167000009AE3A7BF
(1769184377.680145) can0 02807FAA#719D8265801F0104
(1769184377.694734) can0 1200AA7F#167000009AE3A7BF
(1769184377.695234) can0 02807FAA#71BF823581590104
(1769184377.720293) can0 1200AA7F#167000007224A3BF
(1769184377.720842) can0 02807FAA#71FE822081EA0104
(1769184377.739864) can0 1200AA7F#167000007224A3BF
(1769184377.740446) can0 02807FAA#722C825781350104
(1769184377.761886) can0 1200AA7F#167000000A709EBF
(1769184377.762454) can0 02807FAA#7261826581EA0104
(1769184377.783923) can0 1200AA7F#167000000A709EBF
(1769184377.784526) can0 02807FAA#7295827A80C40104
(1769184377.803667) can0 1200AA7F#16700000F3C699BF
(1769184377.803784) can0 1200AA7F#16700000F3C699BF
(1769184377.804299) can0 02807FAA#72C38265810C0104
(1769184377.804422) can0 02807FAA#72C3826581080104
(1769184377.845292) can0 1200AA7F#16700000AA2995BF
(1769184377.845839) can0 02807FAA#7325827A81340104
(1769184377.859990) can0 1200AA7F#16700000AA2995BF
(1769184377.860500) can0 02807FAA#7347829A805D0104
(1769184377.889662) can0 1200AA7F#16700000CA9890BF
(1769184377.890202) can0 02807FAA#738C824B808E0104
(1769184377.904752) can0 1200AA7F#16700000CA9890BF
(1769184377.905305) can0 02807FAA#73AF82707EFC0104
(1769184377.928718) can0 1200AA7F#16700000C2148CBF
(1769184377.929306) can0 02807FAA#73E4820481100104
(1769184377.949784) can0 1200AA7F#16700000C2148CBF
(1769184377.950332) can0 02807FAA#741482607F3B0104
(1769184377.970389) can0 1200AA7F#16700000329E87BF
(1769184377.970935) can0 02807FAA#74438264802B0104
(1769184377.993517) can0 1200AA7F#16700000329E87BF
(1769184377.994102) can0 02807FAA#7477822C80AC0104
(1769184378.012199) can0 1200AA7F#16700000A23583BF
(1769184378.012746) can0 02807FAA#74A1822D80DB0104
(1769184378.020580) can0 1200AA7F#16700000A23583BF
(1769184378.021106) can0 02807FAA#74B4822E810A0104
(1769184378.053700) can0 1200AA7F#167000001DB77DBF
(1769184378.054233) can0 02807FAA#74FE824D7FA10104
(1769184378.069718) can0 1200AA7F#167000001DB77DBF
(1769184378.070245) can0 02807FAA#752282657EB30104
(1769184378.099563) can0 1200AA7F#16700000162175BF
(1769184378.100084) can0 02807FAA#7563822D80B20104
(1769184378.114870) can0 1200AA7F#16700000162175BF
(1769184378.115388) can0 02807FAA#758381F580370104
(1769184378.136989) can0 1200AA7F#1670000056AA6CBF
(1769184378.137537) can0 02807FAA#75B2822080400104
(1769184378.159614) can0 1200AA7F#1670000056AA6CBF
(1769184378.160181) can0 02807FAA#75E281EB80DE0104
(1769184378.178648) can0 1200AA7F#16700000C65364BF
(1769184378.179189) can0 02807FAA#760B822F80C60104
(1769184378.195966) can0 1200AA7F#16700000C65364BF
(1769184378.196510) can0 02807FAA#763181F87EC70104
(1769184378.220227) can0 1200AA7F#167000007D1E5CBF
(1769184378.220770) can0 02807FAA#76648222810E0104
(1769184378.242736) can0 1200AA7F#167000007D1E5CBF
(1769184378.243293) can0 02807FAA#7694822080080104
(1769184378.262008) can0 1200AA7F#16700000A40B54BF
(1769184378.262547) can0 02807FAA#76BC81F6809C0104
(1769184378.271046) can0 1200AA7F#16700000A40B54BF
(1769184378.271622) can0 02807FAA#76CD81D981C70104
(1769184378.309701) can0 1200AA7F#16700000641C4CBF
(1769184378.310243) can0 02807FAA#771E81F680720104
(1769184378.320255) can0 1200AA7F#16700000641C4CBF
(1769184378.320795) can0 02807FAA#773281F6809F0104
(1769184378.345235) can0 1200AA7F#16700000A55144BF
(1769184378.345784) can0 02807FAA#776381F680580104
(1769184378.369623) can0 1200AA7F#16700000A55144BF
(1769184378.370166) can0 02807FAA#7792821F80AB0104
(1769184378.386940) can0 1200AA7F#1670000085AC3CBF
(1769184378.387471) can0 02807FAA#77B481E981AB0104
(1769184378.397489) can0 1200AA7F#1670000085AC3CBF
(1769184378.398035) can0 02807FAA#77CA820480AE0104
(1769184378.428654) can0 1200AA7F#167000001C2E35BF
(1769184378.429199) can0 02807FAA#780881BB81090104
(1769184378.449589) can0 1200AA7F#167000001C2E35BF
(1769184378.450184) can0 02807FAA#783081DA80BB0104
(1769184378.470413) can0 1200AA7F#1670000075D72DBF
(1769184378.470984) can0 02807FAA#785981BC80450104
(1769184378.494822) can0 1200AA7F#1670000075D72DBF
(1769184378.495413) can0 02807FAA#788781F380310104
(1769184378.512007) can0 1200AA7F#16700000C4A926BF
(1769184378.512526) can0 02807FAA#78A881F67F610104
(1769184378.520529) can0 1200AA7F#16700000C4A926BF
(1769184378.521050) can0 02807FAA#78B881C080440104
(1769184378.553661) can0 1200AA7F#16700000F5A51FBF
(1769184378.554252) can0 02807FAA#78F581F280880104
(1769184378.569577) can0 1200AA7F#16700000F5A51FBF
(1769184378.570139) can0 02807FAA#7912816680150104
(1769184378.595357) can0 1200AA7F#1670000025CD18BF
(1769184378.595928) can0 02807FAA#7940819F80BA0104
(1769184378.614760) can0 1200AA7F#1670000025CD18BF
(1769184378.615330) can0 02807FAA#796381F07F140104
(1769184378.637006) can0 1200AA7F#167000007D2012BF
(1769184378.637529) can0 02807FAA#798981B081390104
(1769184378.660175) can0 1200AA7F#167000007D2012BF
(1769184378.660739) can0 02807FAA#79B181C5809B0104
(1769184378.678761) can0 1200AA7F#16700000F4A00BBF
(1769184378.679332) can0 02807FAA#79D0816A81540104
(1769184378.695858) can0 1200AA7F#16700000F4A00BBF
(1769184378.696411) can0 02807FAA#79ED81AF80A00104
(1769184378.720344) can0 1200AA7F#16700000AD4F05BF
(1769184378.720890) can0 02807FAA#7A1881A87ED80104
(1769184378.738982) can0 1200AA7F#16700000AD4F05BF
(1769184378.739492) can0 02807FAA#7A34818681BB0104
(1769184378.762131) can0 1200AA7F#167000008A5BFEBE
(1769184378.762669) can0 02807FAA#7A5B81AF817B0104
(1769184378.782932) can0 1200AA7F#167000008A5BFEBE
(1769184378.783460) can0 02807FAA#7A7D816680340104
(1769184378.809783) can0 1200AA7F#167000006B78F2BE
(1769184378.810338) can0 02807FAA#7AA78183808B0104
(1769184378.831134) can0 1200AA7F#167000006B78F2BE
(1769184378.831714) can0 02807FAA#7AC681B27F6E0104
(1769184378.849782) can0 1200AA7F#167000002AF8E6BE
(1769184378.850367) can0 02807FAA#7AE1814081E80104
(1769184378.860704) can0 1200AA7F#167000002AF8E6BE
(1769184378.861241) can0 02807FAA#7AF0817F80F40104
(1769184378.889657) can0 1200AA7F#167000000ADDDBBE
(1769184378.890198) can0 02807FAA#7B1B817680F30104
(1769184378.902515) can0 1200AA7F#167000000ADDDBBE
(1769184378.903065) can0 02807FAA#7B2E81627F720104
(1769184378.930138) can0 1200AA7F#167000003A29D1BE
(1769184378.930675) can0 02807FAA#7B56814C801D0104
(1769184378.950713) can0 1200AA7F#167000003A29D1BE
(1769184378.951235) can0 02807FAA#7B738186803C0104
(1769184378.971405) can0 1200AA7F#16700000CADEC6BE
(1769184378.971512) can0 1200AA7F#16700000CADEC6BE
(1769184378.972023) can0 02807FAA#7B91812E80C10104
(1769184378.972173) can0 02807FAA#7B91811980CC0104
(1769184379.011940) can0 1200AA7F#16700000DAFFBCBE
(1769184379.012473) can0 02807FAA#7BC8815881680104
(1769184379.020800) can0 1200AA7F#16700000DAFFBCBE
(1769184379.021356) can0 02807FAA#7BD5812F7FFE0104
(1769184379.053670) can0 1200AA7F#167000009A8EB3BE
(1769184379.054222) can0 02807FAA#7C00815080D20104
(1769184379.065176) can0 1200AA7F#167000009A8EB3BE
(1769184379.065729) can0 02807FAA#7C0F814F802A0104
(1769184379.095282) can0 1200AA7F#167000004A8DAABE
(1769184379.095826) can0 02807FAA#7C35814E7F290104
(1769184379.112259) can0 1200AA7F#167000004A8DAABE
(1769184379.112781) can0 02807FAA#7C4880F281950104
(1769184379.137719) can0 1200AA7F#16700000EAFDA1BE
(1769184379.138275) can0 02807FAA#7C67811D81280104
(1769184379.158449) can0 1200AA7F#16700000EAFDA1BE
(1769184379.158958) can0 02807FAA#7C7D813B81160104
(1769184379.178769) can0 1200AA7F#16700000AAE299BE
(1769184379.179328) can0 02807FAA#7C9680F37FA00104
(1769184379.200696) can0 1200AA7F#16700000AAE299BE
(1769184379.201242) can0 02807FAA#7CAC812982220104
(1769184379.220231) can0 1200AA7F#16700000BB3D92BE
(1769184379.220473) can0 1200AA7F#16700000BB3D92BE
(1769184379.220774) can0 02807FAA#7CC2811680550104
(1769184379.221128) can0 02807FAA#7CC28139804D0104
(1769184379.261965) can0 1200AA7F#167000001A118BBE
(1769184379.262531) can0 02807FAA#7CEF80E07EC50104
(1769184379.270614) can0 1200AA7F#167000001A118BBE
(1769184379.271172) can0 02807FAA#7CF680BE803B0104
(1769184379.303685) can0 1200AA7F#167000005A5F84BE
(1769184379.304233) can0 02807FAA#7D158117817A0104
(1769184379.315191) can0 1200AA7F#167000005A5F84BE
(1769184379.315757) can0 02807FAA#7D1F80DB81300104
(1769184379.345377) can0 1200AA7F#1670000055547CBE
(1769184379.345923) can0 02807FAA#7D3B80FA80EC0104
(1769184379.369845) can0 1200AA7F#1670000055547CBE
(1769184379.370409) can0 02807FAA#7D5080CA7F700104
(1769184379.386954) can0 1200AA7F#16700000D5E770BE
(1769184379.387538) can0 02807FAA#7D5D80C681C70104
(1769184379.406701) can0 1200AA7F#16700000D5E770BE
(1769184379.407245) can0 02807FAA#7D6C80D780EC0104
(1769184379.429737) can0 1200AA7F#16700000947D66BE
(1769184379.430286) can0 02807FAA#7D7E80D780940104
(1769184379.452743) can0 1200AA7F#16700000947D66BE
(1769184379.453296) can0 02807FAA#7D8F80CA808A0104
(1769184379.470367) can0 1200AA7F#1670000094195DBE
(1769184379.470936) can0 02807FAA#7D9C80AE7F9C0104
(1769184379.489200) can0 1200AA7F#1670000094195DBE
(1769184379.489739) can0 02807FAA#7DA980877F110104
(1769184379.512185) can0 1200AA7F#1670000054C054BE
(1769184379.512780) can0 02807FAA#7DB68084817C0104
(1769184379.531201) can0 1200AA7F#1670000054C054BE
(1769184379.531693) can0 02807FAA#7DC0808681B00104
(1769184379.553832) can0 1200AA7F#1670000014764DBE
(1769184379.554368) can0 02807FAA#7DCE808981110104
(1769184379.580085) can0 1200AA7F#1670000014764DBE
(1769184379.580651) can0 02807FAA#7DDB807681290104
(1769184379.595362) can0 1200AA7F#16700000363F47BE
(1769184379.595934) can0 02807FAA#7DE3806F80E70104
(1769184379.615760) can0 1200AA7F#16700000363F47BE
(1769184379.616289) can0 02807FAA#7DEC807A80CE0104
(1769184379.639767) can0 1200AA7F#16700000F51F42BE
(1769184379.640324) can0 02807FAA#7DF880677F9B0104
(1769184379.669319) can0 1200AA7F#16700000F51F42BE
(1769184379.669875) can0 02807FAA#7E02805A800E0104
(1769184379.678689) can0 1200AA7F#16700000951C3EBE
(1769184379.679220) can0 02807FAA#7E0680457FD50104
(1769184379.692292) can0 1200AA7F#16700000951C3EBE
(1769184379.692865) can0 02807FAA#7E09803980810104
(1769184379.720792) can0 1200AA7F#1670000074393BBE
(1769184379.721324) can0 02807FAA#7E12805381310104
(1769184379.738886) can0 1200AA7F#1670000074393BBE
(1769184379.739412) can0 02807FAA#7E16803D81610104
(1769184379.762596) can0 1200AA7F#16700000D47A39BE
(1769184379.763177) can0 02807FAA#7E1C8033819B0104
(1769184379.781775) can0 1200AA7F#16700000D47A39BE
(1769184379.782346) can0 02807FAA#7E208037811C0104
(1769184379.803761) can0 1200AA7F#16700000D5E438BE
(1769184379.804330) can0 02807FAA#7E23803680FC0104
(1769184379.826498) can0 1200AA7F#16700000D5E438BE
(1769184379.827030) can0 02807FAA#7E25803781250104
(1769184379.849727) can0 1200AA7F#16700000D5E438BE
(1769184379.850280) can0 02807FAA#7E267FFF80FC0104
(1769184379.887840) can0 1200AA7F#16700000B5DB39BE
(1769184379.888381) can0 02807FAA#7E287FE380B50104
(1769184379.901778) can0 1200AA7F#16700000B5DB39BE
(1769184379.902294) can0 02807FAA#7E287FFF80840104
(1769184379.928754) can0 1200AA7F#1670000034BA3CBE
(1769184379.929312) can0 02807FAA#7E267FFF80640104
(1769184379.952406) can0 1200AA7F#1670000034BA3CBE
(1769184379.952962) can0 02807FAA#7E257FC780630104
(1769184379.970362) can0 1200AA7F#16700000347741BE
(1769184379.970934) can0 02807FAA#7E237FC780590104
(1769184379.976820) can0 1200AA7F#16700000347741BE
(1769184379.977380) can0 02807FAA#7E227FC8805A0104
(1769184380.011982) can0 1200AA7F#16700000B40948BE
(1769184380.012510) can0 02807FAA#7E1B7FBD801B0104
(1769184380.022639) can0 1200AA7F#16700000B40948BE
(1769184380.023210) can0 02807FAA#7E187FCE80490104
(1769184380.059642) can0 1200AA7F#16700000746850BE
(1769184380.060234) can0 02807FAA#7E0D7FAB7F970104
(1769184380.070837) can0 1200AA7F#16700000746850BE
(1769184380.071402) can0 02807FAA#7E0A7FC77F1C0104
(1769184380.095389) can0 1200AA7F#16700000548A5ABE
(1769184380.095927) can0 02807FAA#7E027F857E280104
(1769184380.119945) can0 1200AA7F#16700000548A5ABE
(1769184380.120506) can0 02807FAA#7DF57F567EDA0104
(1769184380.137911) can0 1200AA7F#16700000556666BE
(1769184380.138471) can0 02807FAA#7DE97F567FD20104
(1769184380.157969) can0 1200AA7F#16700000556666BE
(1769184380.158530) can0 02807FAA#7DDD7F6F806A0104
(1769184380.181431) can0 1200AA7F#1670000054F373BE
(1769184380.181988) can0 02807FAA#7DCE7F387FD00104
(1769184380.182098) can0 1200AA7F#1670000054F373BE
(1769184380.182641) can0 02807FAA#7DCE7F5880220104
(1769184380.220460) can0 1200AA7F#167000000A9481BE
(1769184380.221006) can0 02807FAA#7DB37F4A7F6F0104
(1769184380.230583) can0 1200AA7F#167000000A9481BE
(1769184380.231260) can0 02807FAA#7DAC7F597E780104
(1769184380.262575) can0 1200AA7F#16700000CAFD89BE
(1769184380.263187) can0 02807FAA#7D917F207F2D0104
(1769184380.282992) can0 1200AA7F#16700000CAFD89BE
(1769184380.283550) can0 02807FAA#7D7F7EE57F5F0104
(1769184380.305509) can0 1200AA7F#167000005A3293BE
(1769184380.306041) can0 02807FAA#7D6A7F037FB40104
(1769184380.330757) can0 1200AA7F#167000005A3293BE
(1769184380.331292) can0 02807FAA#7D537F387F0E0104
(1769184380.346234) can0 1200AA7F#167000002A2D9DBE
(1769184380.346727) can0 02807FAA#7D447F0D7E2B0104
(1769184380.366406) can0 1200AA7F#167000002A2D9DBE
(1769184380.366937) can0 02807FAA#7D2E7EEA801D0104
(1769184380.389698) can0 1200AA7F#16700000BAE9A7BE
(1769184380.390280) can0 02807FAA#7D127ED9805D0104
(1769184380.419314) can0 1200AA7F#16700000BAE9A7BE
(1769184380.419886) can0 02807FAA#7CF27F047E4F0104
(1769184380.428770) can0 1200AA7F#167000005A63B3BE
(1769184380.429325) can0 02807FAA#7CE77EE87DD20104
(1769184380.441232) can0 1200AA7F#167000005A63B3BE
(1769184380.441788) can0 02807FAA#7CD87EB07F430104
(1769184380.471547) can0 1200AA7F#167000008A95BFBE
(1769184380.472175) can0 02807FAA#7CAF7EBA802B0104
(1769184380.489675) can0 1200AA7F#167000008A95BFBE
(1769184380.490201) can0 02807FAA#7C997EDC7E690104
(1769184380.513093) can0 1200AA7F#16700000CA7BCCBE
(1769184380.513643) can0 02807FAA#7C787EA27F950104
(1769184380.531408) can0 1200AA7F#16700000CA7BCCBE
(1769184380.531973) can0 02807FAA#7C5F7E9F7F750104
(1769184380.553938) can0 1200AA7F#167000007A11DABE
(1769184380.554487) can0 02807FAA#7C3F7ED57E990104
(1769184380.575820) can0 1200AA7F#167000007A11DABE
(1769184380.576336) can0 02807FAA#7C1F7E987F9B0104
(1769184380.600008) can0 1200AA7F#167000000A52E8BE
(1769184380.600590) can0 02807FAA#7BF87E6780090104
(1769184380.629479) can0 1200AA7F#167000000A52E8BE
(1769184380.630060) can0 02807FAA#7BCC7E407FBB0104
(1769184380.637466) can0 1200AA7F#16700000FA38F7BE
(1769184380.638016) can0 02807FAA#7BBE7E6C80950104
(1769184380.650784) can0 1200AA7F#16700000FA38F7BE
(1769184380.651364) can0 02807FAA#7BAA7EB37FD20104
(1769184380.678628) can0 1200AA7F#16700000DD6003BF
(1769184380.679182) can0 02807FAA#7B7B7E407E560104
(1769184380.695203) can0 1200AA7F#16700000DD6003BF
(1769184380.695740) can0 02807FAA#7B5E7E4B7F250104
(1769184380.720259) can0 1200AA7F#16700000D5730BBF
(1769184380.720807) can0 02807FAA#7B317E737F810104
(1769184380.741515) can0 1200AA7F#16700000D5730BBF
(1769184380.742089) can0 02807FAA#7B0B7E0E80120104
(1769184380.762027) can0 1200AA7F#167000002ED313BF
(1769184380.762560) can0 02807FAA#7AE47E0C805E0104
(1769184380.784739) can0 1200AA7F#167000002ED313BF
(1769184380.785293) can0 02807FAA#7ABB7E077EC50104
(1769184380.809669) can0 1200AA7F#16700000867C1CBF
(1769184380.810211) can0 02807FAA#7A897E0B80620104
(1769184380.831100) can0 1200AA7F#16700000867C1CBF
(1769184380.831645) can0 02807FAA#7A637DC87EAC0104
(1769184380.845289) can0 1200AA7F#16700000AD6D25BF
(1769184380.845810) can0 02807FAA#7A477E3B7FB80104
(1769184380.856093) can0 1200AA7F#16700000AD6D25BF
(1769184380.856653) can0 02807FAA#7A337E1D80150104
(1769184380.886939) can0 1200AA7F#1670000055A42EBF
(1769184380.887464) can0 02807FAA#79F47DD17F920104
(1769184380.904462) can0 1200AA7F#1670000055A42EBF
(1769184380.905008) can0 02807FAA#79CE7DD180C20104
(1769184380.929758) can0 1200AA7F#16700000351E38BF
(1769184380.930315) can0 02807FAA#79997DE880060104
(1769184380.950222) can0 1200AA7F#16700000351E38BF
(1769184380.950806) can0 02807FAA#796D7DEC80520104
(1769184380.970281) can0 1200AA7F#1670000006D941BF
(1769184380.970826) can0 02807FAA#79427DCA7F800104
(1769184380.995249) can0 1200AA7F#1670000006D941BF
(1769184380.995831) can0 02807FAA#790B7E087E870104
(1769184381.011966) can0 1200AA7F#1670000085D24BBF
(1769184381.012527) can0 02807FAA#78E47D7D801D0104
(1769184381.029271) can0 1200AA7F#1670000085D24BBF
(1769184381.029773) can0 02807FAA#78BD7D9F80940104
(1769184381.053705) can0 1200AA7F#16700000660856BF
(1769184381.054282) can0 02807FAA#78857DCA7F5D0104
(1769184381.069452) can0 1200AA7F#16700000660856BF
(1769184381.070017) can0 02807FAA#78607DCB80410104
(1769184381.095289) can0 1200AA7F#167000005E7860BF
(1769184381.095855) can0 02807FAA#78237D997F270104
(1769184381.115248) can0 1200AA7F#167000005E7860BF
(1769184381.115784) can0 02807FAA#77F57E087D9B0104
(1769184381.139603) can0 1200AA7F#167000002D206BBF
(1769184381.140202) can0 02807FAA#77B97D6D7FEC0104
(1769184381.160751) can0 1200AA7F#167000002D206BBF
(1769184381.161268) can0 02807FAA#77877D5D7F760104
(1769184381.178707) can0 1200AA7F#1670000085FD75BF
(1769184381.179284) can0 02807FAA#775A7D8B7FBE0104
(1769184381.191055) can0 1200AA7F#1670000085FD75BF
(1769184381.191596) can0 02807FAA#773D7E057D670104
(1769184381.220324) can0 1200AA7F#167000000E8780BF
(1769184381.220867) can0 02807FAA#76F17D9780040104
(1769184381.237732) can0 1200AA7F#167000000E8780BF
(1769184381.238282) can0 02807FAA#76C67CFE80540104
(1769184381.261919) can0 1200AA7F#16700000E32786BF
(1769184381.262454) can0 02807FAA#76887DD07DE10104
(1769184381.282153) can0 1200AA7F#16700000E32786BF
(1769184381.282691) can0 02807FAA#76537D677F8D0104
(1769184381.303715) can0 1200AA7F#167000000BE08BBF
(1769184381.304259) can0 02807FAA#761C7CF77E7A0104
(1769184381.324788) can0 1200AA7F#167000000BE08BBF
(1769184381.325331) can0 02807FAA#75E17D4B80DC0104
(1769184381.349635) can0 1200AA7F#167000006AAE91BF
(1769184381.350206) can0 02807FAA#759F7D617F650104
(1769184381.370241) can0 1200AA7F#167000006AAE91BF
(1769184381.370784) can0 02807FAA#756B7D467E210104
(1769184381.386917) can0 1200AA7F#16700000E29197BF
(1769184381.387458) can0 02807FAA#753C7D3E7FEF0104
(1769184381.396695) can0 1200AA7F#16700000E29197BF
(1769184381.397241) can0 02807FAA#75237D9D7F210104
(1769184381.428648) can0 1200AA7F#167000004A899DBF
(1769184381.429211) can0 02807FAA#74CA7D4780560104
(1769184381.443794) can0 1200AA7F#167000004A899DBF
(1769184381.444401) can0 02807FAA#74A07D1180DD0104
(1769184381.470261) can0 1200AA7F#167000007A93A3BF
(1769184381.470812) can0 02807FAA#74577D0A7DCD0104
(1769184381.485761) can0 1200AA7F#167000007A93A3BF
(1769184381.486336) can0 02807FAA#742A7D427F400104
(1769184381.511946) can0 1200AA7F#167000005AAFA9BF
(1769184381.512512) can0 02807FAA#73DE7CF37FF40104
(1769184381.531241) can0 1200AA7F#167000005AAFA9BF
(1769184381.531777) can0 02807FAA#73AA7D7E7D370104
(1769184381.553727) can0 1200AA7F#16700000B7DBAFBF
(1769184381.554265) can0 02807FAA#73667D29803A0104
(1769184381.579986) can0 1200AA7F#16700000B7DBAFBF
(1769184381.580533) can0 02807FAA#731A7CF180270104
(1769184381.595312) can0 1200AA7F#167000007B17B6BF
(1769184381.595864) can0 02807FAA#72F07D297D600104
(1769184381.600792) can0 1200AA7F#167000007B17B6BF
(1769184381.601312) can0 02807FAA#72DE7CCC7EF50104
(1769184381.637337) can0 1200AA7F#167000007B61BCBF
(1769184381.637911) can0 02807FAA#72727CCE80060104
(1769184381.666374) can0 1200AA7F#167000007B61BCBF
(1769184381.666961) can0 02807FAA#721C7C9A7FE80104
(1769184381.679570) can0 1200AA7F#1670000097B8C2BF
(1769184381.680113) can0 02807FAA#71F37D48801F0104
(1769184381.688379) can0 1200AA7F#1670000097B8C2BF
(1769184381.688942) can0 02807FAA#71DC7D297DFE0104
(1769184381.720379) can0 1200AA7F#16700000AA1BC9BF
(1769184381.720897) can0 02807FAA#717B7CE37E460104
(1769184381.739808) can0 1200AA7F#16700000AA1BC9BF
(1769184381.740359) can0 02807FAA#713F7D1180320104
(1769184381.761943) can0 1200AA7F#167000008A89CFBF
(1769184381.762502) can0 02807FAA#70FC7D157FC50104
(1769184381.784755) can0 1200AA7F#167000008A89CFBF
(1769184381.785322) can0 02807FAA#70B77C9F7FAB0104
(1769184381.803654) can0 1200AA7F#167000001E01D6BF
(1769184381.804224) can0 02807FAA#707D7D617E650104
(1769184381.819839) can0 1200AA7F#167000001E01D6BF
(1769184381.820356) can0 02807FAA#704A7D1E80060104
(1769184381.845321) can0 1200AA7F#167000004281DCBF
(1769184381.845860) can0 02807FAA#6FFB7CB67F870104
(1769184381.865215) can0 1200AA7F#167000004281DCBF
(1769184381.865671) can0 02807FAA#6FC07D567DD60104
(1769184381.886916) can0 1200AA7F#16700000C608E3BF
(1769184381.887452) can0 02807FAA#6F797D117FF60104
(1769184381.910242) can0 1200AA7F#16700000C608E3BF
(1769184381.910845) can0 02807FAA#6F317D037FE00104
(1769184381.928684) can0 1200AA7F#167000009396E9BF
(1769184381.929255) can0 02807FAA#6EF97C847F1F0104
(1769184381.946085) can0 1200AA7F#167000009396E9BF
(1769184381.946612) can0 02807FAA#6EC07D29800B0104
(1769184381.970337) can0 1200AA7F#167000007E29F0BF
(1769184381.970903) can0 02807FAA#6E727CB980140104
(1769184381.988807) can0 1200AA7F#167000007E29F0BF
(1769184381.989344) can0 02807FAA#6E3B7CA87FA70104
(1769184382.011953) can0 1200AA7F#1670000066C0F6BF
(1769184382.012508) can0 02807FAA#6DF27CE37DB60104
(1769184382.040054) can0 1200AA7F#1670000066C0F6BF
(1769184382.040575) can0 02807FAA#6D9A7D297DE70104
(1769184382.059703) can0 1200AA7F#167000002A5AFDBF
(1769184382.060262) can0 02807FAA#6D577CC380980104
(1769184382.060558) can0 1200AA7F#167000002A5AFDBF
(1769184382.061096) can0 02807FAA#6D557D2F80510104
(1769184382.101703) can0 1200AA7F#16700000D0FA01C0
(1769184382.102031) can0 1200AA7F#16700000D0FA01C0
(1769184382.102261) can0 02807FAA#6CD87CA97F470104
(1769184382.102620) can0 02807FAA#6CD77C857F760104
(1769184382.139651) can0 1200AA7F#16700000D54805C0
(1769184382.140242) can0 02807FAA#6C617CEA7FA40104
(1769184382.154308) can0 1200AA7F#16700000D54805C0
(1769184382.154821) can0 02807FAA#6C357D527DD90104
(1769184382.179824) can0 1200AA7F#16700000929608C0
(1769184382.180424) can0 02807FAA#6BE17D437E6A0104
(1769184382.203509) can0 1200AA7F#16700000929608C0
(1769184382.204109) can0 02807FAA#6B957CB580290104
(1769184382.220760) can0 1200AA7F#1670000072E30BC0
(1769184382.221320) can0 02807FAA#6B5D7C807FFE0104
(1769184382.234295) can0 1200AA7F#1670000072E30BC0
(1769184382.234826) can0 02807FAA#6B317D117FA90104
(1769184382.262761) can0 1200AA7F#16700000E52E0FC0
(1769184382.263292) can0 02807FAA#6AD47D247FD50104
(1769184382.280705) can0 1200AA7F#16700000E52E0FC0
(1769184382.281264) can0 02807FAA#6A9A7CB280350104
(1769184382.303891) can0 1200AA7F#167000005C7812C0
(1769184382.304449) can0 02807FAA#6A4F7CA57F160104
(1769184382.326557) can0 1200AA7F#167000005C7812C0
(1769184382.327104) can0 02807FAA#6A077CB97E5D0104
(1769184382.345601) can0 1200AA7F#1670000041BF15C0
(1769184382.346157) can0 02807FAA#69C57CF27FEB0104
(1769184382.356996) can0 1200AA7F#1670000041BF15C0
(1769184382.357603) can0 02807FAA#69A37C967E690104
(1769184382.388356) can0 1200AA7F#16700000050319C0
(1769184382.388903) can0 02807FAA#693C7C8080000104
(1769184382.402027) can0 1200AA7F#16700000050319C0
(1769184382.402748) can0 02807FAA#69107CF17FEB0104
(1769184382.428755) can0 1200AA7F#1670000015431CC0
(1769184382.429301) can0 02807FAA#68B97CCA80580104
(1769184382.449175) can0 1200AA7F#1670000015431CC0
(1769184382.449722) can0 02807FAA#68787CF180430104
(1769184382.470455) can0 1200AA7F#16700000DE7E1FC0
(1769184382.471005) can0 02807FAA#68357C817EBA0104
(1769184382.490554) can0 1200AA7F#16700000DE7E1FC0
(1769184382.491097) can0 02807FAA#67F57D9A7DFF0104
(1769184382.512302) can0 1200AA7F#16700000D1B522C0
(1769184382.512846) can0 02807FAA#67AC7CB980850104
(1769184382.534594) can0 1200AA7F#16700000D1B522C0
(1769184382.535110) can0 02807FAA#67667CC17F4A0104
(1769184382.559793) can0 1200AA7F#167000005AE725C0
(1769184382.560357) can0 02807FAA#67157CB880360104
(1769184382.592382) can0 1200AA7F#167000005AE725C0
(1769184382.592954) can0 02807FAA#66B17CCC7F930104
(1769184382.596889) can0 1200AA7F#16700000E71229C0
(1769184382.597456) can0 02807FAA#66A27CCC7FCD0104
(1769184382.610971) can0 1200AA7F#16700000E71229C0
(1769184382.611545) can0 02807FAA#667A7CF17E2D0104
(1769184382.636993) can0 1200AA7F#16700000E7372CC0
(1769184382.637556) can0 02807FAA#66277D287DD90104
(1769184382.661098) can0 1200AA7F#16700000E7372CC0
(1769184382.661659) can0 02807FAA#65DA7D227FA20104
(1769184382.679705) can0 1200AA7F#16700000C9552FC0
(1769184382.680260) can0 02807FAA#659E7CEB801B0104
(1769184382.690000) can0 1200AA7F#16700000C9552FC0
(1769184382.690544) can0 02807FAA#657D7D497F160104
(1769184382.721295) can0 1200AA7F#16700000F96B32C0
(1769184382.721844) can0 02807FAA#651C7D617E860104
(1769184382.739979) can0 1200AA7F#16700000F96B32C0
(1769184382.740509) can0 02807FAA#64E17D1F805D0104
(1769184382.762020) can0 1200AA7F#16700000E77935C0
(1769184382.762568) can0 02807FAA#649C7C817FAA0104
(1769184382.787162) can0 1200AA7F#16700000E77935C0
(1769184382.787601) can0 02807FAA#64527CB97F560104
(1769184382.804032) can0 1200AA7F#16700000017F38C0
(1769184382.804592) can0 02807FAA#641A7CEA80390104
(1769184382.817049) can0 1200AA7F#16700000017F38C0
(1769184382.817555) can0 02807FAA#63F57CB97E4B0104
(1769184382.845441) can0 1200AA7F#16700000B47A3BC0
(1769184382.845986) can0 02807FAA#639D7CCA7EBC0104
(1769184382.871741) can0 1200AA7F#16700000B47A3BC0
(1769184382.872328) can0 02807FAA#634E7D297D530104
(1769184382.890602) can0 1200AA7F#167000006E6C3EC0
(1769184382.891172) can0 02807FAA#63127CF1800A0104
(1769184382.904050) can0 1200AA7F#167000006E6C3EC0
(1769184382.904623) can0 02807FAA#62ED7D227E6F0104
(1769184382.928716) can0 1200AA7F#16700000A05341C0
(1769184382.929267) can0 02807FAA#62A37D617E5F0104
(1769184382.950694) can0 1200AA7F#16700000A05341C0
(1769184382.951204) can0 02807FAA#62627D0D7F350104
(1769184382.970545) can0 1200AA7F#16700000B62F44C0
(1769184382.971094) can0 02807FAA#62277CB980180104
(1769184382.993672) can0 1200AA7F#16700000B62F44C0
(1769184382.994210) can0 02807FAA#61E57D807D930104
(1769184383.012801) can0 1200AA7F#167000001B0047C0
(1769184383.013296) can0 02807FAA#61AA7D1B80450104
(1769184383.023887) can0 1200AA7F#167000001B0047C0
(1769184383.024409) can0 02807FAA#618C7D687DF20104
(1769184383.053825) can0 1200AA7F#1670000044C449C0
(1769184383.054399) can0 02807FAA#61357D9A7DA80104
(1769184383.070035) can0 1200AA7F#1670000044C449C0
(1769184383.070581) can0 02807FAA#61067D4F7FCA0104
(1769184383.099743) can0 1200AA7F#167000009B7B4CC0
(1769184383.100298) can0 02807FAA#60B17D4580230104
(1769184383.116315) can0 1200AA7F#167000009B7B4CC0
(1769184383.116863) can0 02807FAA#60847D997ED00104
(1769184383.137107) can0 1200AA7F#1670000090254FC0
(1769184383.137654) can0 02807FAA#604A7D557F8A0104
(1769184383.159688) can0 1200AA7F#1670000090254FC0
(1769184383.160227) can0 02807FAA#600F7D087EFA0104
(1769184383.178709) can0 1200AA7F#167000008FC151C0
(1769184383.179279) can0 02807FAA#5FD77D0A80750104
(1769184383.195523) can0 1200AA7F#167000008FC151C0
(1769184383.196086) can0 02807FAA#5FAB7D487FCB0104
(1769184383.221036) can0 1200AA7F#16700000054F54C0
(1769184383.221567) can0 02807FAA#5F667D977E0C0104
(1769184383.249364) can0 1200AA7F#16700000054F54C0
(1769184383.249938) can0 02807FAA#5F197DC27EC90104
(1769184383.262021) can0 1200AA7F#1670000064CD56C0
(1769184383.262557) can0 02807FAA#5EF87D027F730104
(1769184383.279925) can0 1200AA7F#1670000064CD56C0
(1769184383.280440) can0 02807FAA#5EC97D95803E0104
(1769184383.309744) can0 1200AA7F#16700000183C59C0
(1769184383.310308) can0 02807FAA#5E7B7D7D80000104
(1769184383.321922) can0 1200AA7F#16700000183C59C0
(1769184383.322472) can0 02807FAA#5E5E7DD17DE50104
(1769184383.345350) can0 1200AA7F#16700000929A5BC0
(1769184383.345897) can0 02807FAA#5E247D8C7FBD0104
(1769184383.370031) can0 1200AA7F#16700000929A5BC0
(1769184383.370559) can0 02807FAA#5DE77D3F7F950104
(1769184383.387067) can0 1200AA7F#167000003CE85DC0
(1769184383.387644) can0 02807FAA#5DBB7D7F80F80104
(1769184383.406312) can0 1200AA7F#167000003CE85DC0
(1769184383.406854) can0 02807FAA#5D8E7D617F750104
(1769184383.429840) can0 1200AA7F#16700000832460C0
(1769184383.430396) can0 02807FAA#5D537DDE7E830104
(1769184383.451547) can0 1200AA7F#16700000832460C0
(1769184383.452101) can0 02807FAA#5D1F7D9C7FE50104
(1769184383.470398) can0 1200AA7F#16700000DC4E62C0
(1769184383.470943) can0 02807FAA#5CF37DEC7DB40104
(1769184383.489522) can0 1200AA7F#16700000DC4E62C0
(1769184383.490067) can0 02807FAA#5CC77DFA7F600104
(1769184383.512132) can0 1200AA7F#16700000B16664C0
(1769184383.512692) can0 02807FAA#5C937E017E290104
(1769184383.532341) can0 1200AA7F#16700000B16664C0
(1769184383.532897) can0 02807FAA#5C657E077FC70104
(1769184383.553848) can0 1200AA7F#167000006F6B66C0
(1769184383.554392) can0 02807FAA#5C367DD17D930104
(1769184383.580329) can0 1200AA7F#167000006F6B66C0
(1769184383.580839) can0 02807FAA#5BFB7DD07F950104
(1769184383.596708) can0 1200AA7F#16700000875C68C0
(1769184383.597293) can0 02807FAA#5BD97E397DFD0104
(1769184383.616397) can0 1200AA7F#16700000875C68C0
(1769184383.616960) can0 02807FAA#5BB07E1D7F270104
(1769184383.639889) can0 1200AA7F#1670000063396AC0
(1769184383.640447) can0 02807FAA#5B807DDF7E430104
(1769184383.661044) can0 1200AA7F#1670000063396AC0
(1769184383.661580) can0 02807FAA#5B567E0A7E3E0104
(1769184383.678896) can0 1200AA7F#1670000077016CC0
(1769184383.679447) can0 02807FAA#5B327E627E970104
(1769184383.699620) can0 1200AA7F#1670000077016CC0
(1769184383.700179) can0 02807FAA#5B097E0880160104
(1769184383.720571) can0 1200AA7F#167000002FB46DC0
(1769184383.721156) can0 02807FAA#5AE07E09801D0104
(1769184383.741442) can0 1200AA7F#167000002FB46DC0
(1769184383.742019) can0 02807FAA#5ABB7DD47F030104
(1769184383.762831) can0 1200AA7F#16700000F5506FC0
(1769184383.763350) can0 02807FAA#5A917E39807A0104
(1769184383.789879) can0 1200AA7F#16700000F5506FC0
(1769184383.790402) can0 02807FAA#5A637E097F470104
(1769184383.803661) can0 1200AA7F#1670000039D770C0
(1769184383.804298) can0 02807FAA#5A4A7E517FAD0104
(1769184383.819614) can0 1200AA7F#1670000039D770C0
(1769184383.820160) can0 02807FAA#5A2E7E4080E70104
(1769184383.849560) can0 1200AA7F#16700000714672C0
(1769184383.850135) can0 02807FAA#59FD7E487FA60104
(1769184383.864588) can0 1200AA7F#16700000714672C0
(1769184383.865180) can0 02807FAA#59E67E887F4C0104
(1769184383.886894) can0 1200AA7F#16700000019E73C0
(1769184383.887433) can0 02807FAA#59C57EB07ED20104
(1769184383.909443) can0 1200AA7F#16700000019E73C0
(1769184383.909981) can0 02807FAA#59A37E6980130104
(1769184383.928644) can0 1200AA7F#1670000057DD74C0
(1769184383.929191) can0 02807FAA#59857E7F80230104
(1769184383.944687) can0 1200AA7F#1670000057DD74C0
(1769184383.945308) can0 02807FAA#596E7EB47F480104
(1769184383.970315) can0 1200AA7F#16700000EB0376C0
(1769184383.970838) can0 02807FAA#594A7E787F3D0104
(1769184383.990198) can0 1200AA7F#16700000EB0376C0
(1769184383.990753) can0 02807FAA#59307E9E7F240104
(1769184384.012090) can0 1200AA7F#16700000271177C0
(1769184384.012635) can0 02807FAA#59137EDE7FE50104
(1769184384.034594) can0 1200AA7F#16700000271177C0
(1769184384.035159) can0 02807FAA#58F97EC07EE20104
(1769184384.059629) can0 1200AA7F#167000006F0478C0
(1769184384.060173) can0 02807FAA#58DA7EE97FD60104
(1769184384.080193) can0 1200AA7F#167000006F0478C0
(1769184384.080765) can0 02807FAA#58C57F1D80AB0104
(1769184384.095320) can0 1200AA7F#167000003FDD78C0
(1769184384.095892) can0 02807FAA#58B67F207F2F0104
(1769184384.105174) can0 1200AA7F#167000003FDD78C0
(1769184384.105731) can0 02807FAA#58AE7F237DD60104
(1769184384.136962) can0 1200AA7F#16700000FF9A79C0
(1769184384.137535) can0 02807FAA#588D7EFB7F0F0104
(1769184384.154445) can0 1200AA7F#16700000FF9A79C0
(1769184384.155014) can0 02807FAA#587D7F037F7C0104
(1769184384.179815) can0 1200AA7F#167000001F3D7AC0
(1769184384.180390) can0 02807FAA#58667F19805A0104
(1769184384.200174) can0 1200AA7F#167000001F3D7AC0
(1769184384.200723) can0 02807FAA#58577F587EED0104
(1769184384.220324) can0 1200AA7F#167000000DC37AC0
(1769184384.220895) can0 02807FAA#58497F647EEE0104
(1769184384.244838) can0 1200AA7F#167000000DC37AC0
(1769184384.245381) can0 02807FAA#58377F2A80030104
(1769184384.261986) can0 1200AA7F#16700000312C7BC0
(1769184384.262541) can0 02807FAA#582D7F837FCA0104
(1769184384.278241) can0 1200AA7F#16700000312C7BC0
(1769184384.278810) can0 02807FAA#58257F807F930104
(1769184384.303661) can0 1200AA7F#1670000005787BC0
(1769184384.304233) can0 02807FAA#58167F79806F0104
(1769184384.329781) can0 1200AA7F#1670000005787BC0
(1769184384.330362) can0 02807FAA#580C7F75808B0104
(1769184384.345362) can0 1200AA7F#16700000E9A57BC0
(1769184384.345885) can0 02807FAA#58067F9A7F9F0104
(1769184384.359675) can0 1200AA7F#16700000E9A57BC0
(1769184384.360263) can0 02807FAA#58037FC77F430104
(1769184384.389555) can0 1200AA7F#167000005AB57BC0
(1769184384.390133) can0 02807FAA#57FC7FCB7E7F0104
(1769184384.405201) can0 1200AA7F#167000005AB57BC0
(1769184384.405751) can0 02807FAA#57FA7FCB7E6D0104
(1769184384.428732) can0 1200AA7F#16700000FCAB7BC0
(1769184384.429319) can0 02807FAA#57F77FD57E7A0104
(1769184384.449624) can0 1200AA7F#16700000FCAB7BC0
(1769184384.450154) can0 02807FAA#57F67FFC7E7F0104
(1769184384.470373) can0 1200AA7F#1670000012907BC0
(1769184384.470921) can0 02807FAA#57F57FC87E3D0104
(1769184384.492452) can0 1200AA7F#1670000012907BC0
(1769184384.493017) can0 02807FAA#57F67FFF7EDF0104
(1769184384.511997) can0 1200AA7F#16700000DF617BC0
(1769184384.512549) can0 02807FAA#57F77FFF7F0A0104
(1769184384.524692) can0 1200AA7F#16700000DF617BC0
(1769184384.525216) can0 02807FAA#57F880357F550104
(1769184384.553743) can0 1200AA7F#16700000A8217BC0
(1769184384.554328) can0 02807FAA#57FB80337F850104
(1769184384.570132) can0 1200AA7F#16700000A8217BC0
(1769184384.570652) can0 02807FAA#57FD80017F900104
(1769184384.599609) can0 1200AA7F#16700000B4CF7AC0
(1769184384.600178) can0 02807FAA#5803803780C40104
(1769184384.614882) can0 1200AA7F#16700000B4CF7AC0
(1769184384.615456) can0 02807FAA#58068022807D0104
(1769184384.636961) can0 1200AA7F#16700000456C7AC0
(1769184384.637531) can0 02807FAA#580B803D81660104
(1769184384.660002) can0 1200AA7F#16700000456C7AC0
(1769184384.660568) can0 02807FAA#5812806E82320104
(1769184384.678687) can0 1200AA7F#16700000A1F779C0
(1769184384.679233) can0 02807FAA#581A806B80FD0104
(1769184384.695096) can0 1200AA7F#16700000A1F779C0
(1769184384.695660) can0 02807FAA#581F805281300104
(1769184384.720346) can0 1200AA7F#167000000D7279C0
(1769184384.720888) can0 02807FAA#5829806B80D80104
(1769184384.742271) can0 1200AA7F#167000000D7279C0
(1769184384.742862) can0 02807FAA#5833806F81470104
(1769184384.762026) can0 1200AA7F#16700000CEDB78C0
(1769184384.762224) can0 1200AA7F#16700000CEDB78C0
(1769184384.762710) can0 02807FAA#583C806F819C0104
(1769184384.762869) can0 02807FAA#583C807281A90104
(1769184384.809730) can0 1200AA7F#16700000283578C0
(1769184384.810338) can0 02807FAA#5856806F7FBA0104
(1769184384.831623) can0 1200AA7F#16700000283578C0
(1769184384.832468) can0 02807FAA#585F803D80ED0104
(1769184384.845251) can0 1200AA7F#16700000607E77C0
(1769184384.845844) can0 02807FAA#5865804081730104
(1769184384.856224) can0 1200AA7F#16700000607E77C0
(1769184384.856778) can0 02807FAA#586C809681A30104
(1769184384.886913) can0 1200AA7F#16700000BCB776C0
(1769184384.887492) can0 02807FAA#588380B8804D0104
(1769184384.904536) can0 1200AA7F#16700000BCB776C0
(1769184384.905081) can0 02807FAA#588F80B5806F0104
(1769184384.929820) can0 1200AA7F#167000007FE175C0
(1769184384.930365) can0 02807FAA#58A280AE7FC60104
(1769184384.950689) can0 1200AA7F#167000007FE175C0
(1769184384.951265) can0 02807FAA#58B280A77F340104
(1769184384.970354) can0 1200AA7F#16700000F0FB74C0
(1769184384.970926) can0 02807FAA#58BF80B681A30104
(1769184384.982169) can0 1200AA7F#16700000F0FB74C0
(1769184384.982682) can0 02807FAA#58C880C8821F0104
(1769184385.011994) can0 1200AA7F#16700000530774C0
(1769184385.012520) can0 02807FAA#58E180D781600104
(1769184385.029182) can0 1200AA7F#16700000530774C0
(1769184385.029709) can0 02807FAA#58EF8112812B0104
(1769184385.053650) can0 1200AA7F#16700000EA0373C0
(1769184385.054222) can0 02807FAA#590680EC7F170104
(1769184385.069495) can0 1200AA7F#16700000EA0373C0
(1769184385.070015) can0 02807FAA#591480AF80B40104
(1769184385.096392) can0 1200AA7F#16700000FFF171C0
(1769184385.096918) can0 02807FAA#592C80F1812B0104
(1769184385.114734) can0 1200AA7F#16700000FFF171C0
(1769184385.115301) can0 02807FAA#593E810480A10104
(1769184385.139621) can0 1200AA7F#16700000D3D170C0
(1769184385.140174) can0 02807FAA#595780F17F6C0104
(1769184385.162267) can0 1200AA7F#16700000D3D170C0
(1769184385.162764) can0 02807FAA#596C80C280690104
(1769184385.178669) can0 1200AA7F#16700000ACA36FC0
(1769184385.179214) can0 02807FAA#597C810482060104
(1769184385.190618) can0 1200AA7F#16700000ACA36FC0
(1769184385.191181) can0 02807FAA#5988810581710104
(1769184385.220364) can0 1200AA7F#16700000CE676EC0
(1769184385.220936) can0 02807FAA#59A980F7813A0104
(1769184385.240458) can0 1200AA7F#16700000CE676EC0
(1769184385.240981) can0 02807FAA#59C1813B7F850104
(1769184385.262077) can0 1200AA7F#16700000801E6DC0
(1769184385.262632) can0 02807FAA#59D9813B81460104
(1769184385.289276) can0 1200AA7F#16700000801E6DC0
(1769184385.289831) can0 02807FAA#59F9811B806B0104
(1769184385.303847) can0 1200AA7F#1670000004C86BC0
(1769184385.304435) can0 02807FAA#5A0B81507FEE0104
(1769184385.325848) can0 1200AA7F#1670000004C86BC0
(1769184385.326407) can0 02807FAA#5A2580FA803F0104
(1769184385.352530) can0 1200AA7F#16700000A1646AC0
(1769184385.353072) can0 02807FAA#5A46812B812A0104
(1769184385.369643) can0 1200AA7F#16700000A1646AC0
(1769184385.370192) can0 02807FAA#5A59813481690104
(1769184385.387451) can0 1200AA7F#167000009CF468C0
(1769184385.388000) can0 02807FAA#5A70814E7FD00104
(1769184385.409630) can0 1200AA7F#167000009CF468C0
(1769184385.410204) can0 02807FAA#5A8A816A81910104
(1769184385.428767) can0 1200AA7F#16700000387867C0
(1769184385.429361) can0 02807FAA#5AA6815E806F0104
(1769184385.452153) can0 1200AA7F#16700000387867C0
(1769184385.452674) can0 02807FAA#5AC781A67FFD0104
(1769184385.470372) can0 1200AA7F#16700000BBEF65C0
(1769184385.470920) can0 02807FAA#5AE1813981B20104
(1769184385.490566) can0 1200AA7F#16700000BBEF65C0
(1769184385.491086) can0 02807FAA#5AFD815881430104
(1769184385.512007) can0 1200AA7F#16700000695B64C0
(1769184385.512562) can0 02807FAA#5B1D815580B50104
(1769184385.531807) can0 1200AA7F#16700000695B64C0
(1769184385.532408) can0 02807FAA#5B3A812E81090104
(1769184385.560115) can0 1200AA7F#1670000088BB62C0
(1769184385.560667) can0 02807FAA#5B64814D807B0104
(1769184385.580302) can0 1200AA7F#1670000088BB62C0
(1769184385.580842) can0 02807FAA#5B8181767F970104
(1769184385.599661) can0 1200AA7F#167000005C1061C0
(1769184385.600233) can0 02807FAA#5B9B811A817E0104
(1769184385.612588) can0 1200AA7F#167000005C1061C0
(1769184385.613107) can0 02807FAA#5BAE818A81F80104
(1769184385.640296) can0 1200AA7F#167000002A5A5FC0
(1769184385.640875) can0 02807FAA#5BD981B67FA70104
(1769184385.659618) can0 1200AA7F#167000002A5A5FC0
(1769184385.660160) can0 02807FAA#5BF6818381880104
(1769184385.679744) can0 1200AA7F#1670000037995DC0
(1769184385.680368) can0 02807FAA#5C1881AF80570104
(1769184385.700083) can0 1200AA7F#1670000037995DC0
(1769184385.700597) can0 02807FAA#5C3981DC7F6F0104
(1769184385.720483) can0 1200AA7F#16700000C8CD5BC0
(1769184385.721027) can0 02807FAA#5C5A819F815C0104
(1769184385.744763) can0 1200AA7F#16700000C8CD5BC0
(1769184385.745294) can0 02807FAA#5C8481F480EC0104
(1769184385.762800) can0 1200AA7F#1670000021F859C0
(1769184385.763376) can0 02807FAA#5CA4818680D00104
(1769184385.780064) can0 1200AA7F#1670000021F859C0
(1769184385.780581) can0 02807FAA#5CC181B780C70104
(1769184385.803943) can0 1200AA7F#16700000871858C0
(1769184385.804525) can0 02807FAA#5CEC81E97EDF0104
(1769184385.825181) can0 1200AA7F#16700000871858C0
(1769184385.825723) can0 02807FAA#5D0F81CB819B0104
(1769184385.845386) can0 1200AA7F#16700000402F56C0
(1769184385.845958) can0 02807FAA#5D3481BE80EC0104
(1769184385.865029) can0 1200AA7F#16700000402F56C0
(1769184385.865629) can0 02807FAA#5D5881967FE90104
(1769184385.886986) can0 1200AA7F#16700000903C54C0
(1769184385.887501) can0 02807FAA#5D7F81C580D60104
(1769184385.911656) can0 1200AA7F#16700000903C54C0
(1769184385.912231) can0 02807FAA#5DAD81F57F850104
(1769184385.928819) can0 1200AA7F#16700000BB4052C0
(1769184385.929383) can0 02807FAA#5DCB81EA81310104
(1769184385.948739) can0 1200AA7F#16700000BB4052C0
(1769184385.949254) can0 02807FAA#5DF081E981710104
(1769184385.970384) can0 1200AA7F#16700000093C50C0
(1769184385.970937) can0 02807FAA#5E1981C181900104
(1769184386.000329) can0 1200AA7F#16700000093C50C0
(1769184386.000835) can0 02807FAA#5E5181F7807F0104
(1769184386.019175) can0 1200AA7F#16700000BA2E4EC0
(1769184386.019698) can0 1200AA7F#16700000BA2E4EC0
(1769184386.019745) can0 02807FAA#5E75818481E40104
(1769184386.020255) can0 02807FAA#5E7681BE825A0104
(1769184386.063639) can0 1200AA7F#1670000016194CC0
(1769184386.064215) can0 02807FAA#5EC7818680BA0104
(1769184386.084885) can0 1200AA7F#1670000016194CC0
(1769184386.085446) can0 02807FAA#5EED81C4804D0104
(1769184386.102397) can0 1200AA7F#1670000061FB49C0
(1769184386.103006) can0 02807FAA#5F0F81F77F520104
(1769184386.121061) can0 1200AA7F#1670000061FB49C0
(1769184386.121590) can0 02807FAA#5F3081F581C20104
(1769184386.140535) can0 1200AA7F#16700000E1D547C0
(1769184386.141107) can0 02807FAA#5F5781B681A40104
(1769184386.141811) can0 1200AA7F#16700000E1D547C0
(1769184386.142414) can0 02807FAA#5F5A81CB81E90104
(1769184386.181739) can0 1200AA7F#16700000D8A845C0
(1769184386.182262) can0 1200AA7F#16700000D8A845C0
(1769184386.182309) can0 02807FAA#5FAC82207FEB0104
(1769184386.182816) can0 02807FAA#5FAD821280060104
(1769184386.220407) can0 1200AA7F#167000008F7443C0
(1769184386.220971) can0 02807FAA#5FFD81F6817D0104
(1769184386.229421) can0 1200AA7F#167000008F7443C0
(1769184386.229978) can0 02807FAA#601081F680A90104
(1769184386.265000) can0 1200AA7F#16700000463941C0
(1769184386.265573) can0 02807FAA#605E822D80C40104
(1769184386.282332) can0 1200AA7F#16700000463941C0
(1769184386.282873) can0 02807FAA#608482347EE80104
(1769184386.304538) can0 1200AA7F#1670000046F73EC0
(1769184386.305165) can0 02807FAA#60B3821580F50104
(1769184386.324749) can0 1200AA7F#1670000046F73EC0
(1769184386.325341) can0 02807FAA#60DE82647F7A0104
(1769184386.345399) can0 1200AA7F#16700000D3AE3CC0
(1769184386.345963) can0 02807FAA#610B821080200104
(1769184386.365508) can0 1200AA7F#16700000D3AE3CC0
(1769184386.366060) can0 02807FAA#613882497F630104
(1769184386.387272) can0 1200AA7F#167000002F603AC0
(1769184386.387820) can0 02807FAA#6167826480A30104
(1769184386.412923) can0 1200AA7F#167000002F603AC0
(1769184386.413521) can0 02807FAA#61A081F680DD0104
(1769184386.428780) can0 1200AA7F#16700000A10B38C0
(1769184386.429324) can0 02807FAA#61C4824A7F980104
(1769184386.448761) can0 1200AA7F#16700000A10B38C0
(1769184386.449326) can0 02807FAA#61F0823B7EB40104
(1769184386.470553) can0 1200AA7F#167000006FB135C0
(1769184386.471133) can0 02807FAA#6221823B82310104
(1769184386.500720) can0 1200AA7F#167000006FB135C0
(1769184386.501281) can0 02807FAA#626381F681940104
(1769184386.512302) can0 1200AA7F#16700000DB5133C0
(1769184386.512859) can0 02807FAA#627E822D80830104
(1769184386.529757) can0 1200AA7F#16700000DB5133C0
(1769184386.530297) can0 02807FAA#62A682647F370104
(1769184386.559988) can0 1200AA7F#167000002BED30C0
(1769184386.560580) can0 02807FAA#62EA822E81340104
(1769184386.579647) can0 1200AA7F#167000002BED30C0
(1769184386.580183) can0 02807FAA#6314820A821B0104
(1769184386.599837) can0 1200AA7F#16700000A5832EC0
(1769184386.600440) can0 02807FAA#6342822D80510104
(1769184386.625718) can0 1200AA7F#16700000A5832EC0
(1769184386.626284) can0 02807FAA#6379824982110104
(1769184386.639628) can0 1200AA7F#167000008C152CC0
(1769184386.640179) can0 02807FAA#639B822E81060104
(1769184386.652094) can0 1200AA7F#167000008C152CC0
(1769184386.652616) can0 02807FAA#63B8822E7F230104
(1769184386.679914) can0 1200AA7F#1670000028A329C0
(1769184386.680469) can0 02807FAA#63F98265806A0104
(1769184386.705663) can0 1200AA7F#1670000028A329C0
(1769184386.706235) can0 02807FAA#6435829A81290104
(1769184386.720471) can0 1200AA7F#16700000B92C27C0
(1769184386.721049) can0 02807FAA#6459824A80D00104
(1769184386.730094) can0 1200AA7F#16700000B92C27C0
(1769184386.730644) can0 02807FAA#647182607F0D0104
(1769184386.763174) can0 1200AA7F#1670000087B224C0
(1769184386.763716) can0 02807FAA#64C182967EF00104
(1769184386.771703) can0 1200AA7F#1670000087B224C0
(1769184386.772270) can0 02807FAA#64D5822D811A0104
(1769184386.804783) can0 1200AA7F#16700000D73422C0
(1769184386.805411) can0 02807FAA#652482657F600104
(1769184386.824650) can0 1200AA7F#16700000D73422C0
(1769184386.825193) can0 02807FAA#6552826580410104
(1769184386.845416) can0 1200AA7F#16700000EFB31FC0
(1769184386.845973) can0 02807FAA#6586822E7FB70104
(1769184386.864890) can0 1200AA7F#16700000EFB31FC0
(1769184386.865459) can0 02807FAA#65B3826581A40104
(1769184386.889862) can0 1200AA7F#1670000010301DC0
(1769184386.890454) can0 02807FAA#65F1823681A90104
(1769184386.909212) can0 1200AA7F#1670000010301DC0
(1769184386.909796) can0 02807FAA#661F823B80F10104
(1769184386.930948) can0 1200AA7F#1670000080A91AC0
(1769184386.931509) can0 02807FAA#6653826681AE0104
(1769184386.931698) can0 1200AA7F#1670000080A91AC0
(1769184386.932280) can0 02807FAA#6655826B81600104
(1769184386.971472) can0 1200AA7F#16700000842018C0
(1769184386.972021) can0 02807FAA#66B5826B80DB0104
(1769184386.990260) can0 1200AA7F#16700000842018C0
(1769184386.990808) can0 02807FAA#66E382A17F620104
(1769184387.012955) can0 1200AA7F#16700000649515C0
(1769184387.013515) can0 02807FAA#671B827080C00104
(1769184387.039997) can0 1200AA7F#16700000649515C0
(1769184387.040558) can0 02807FAA#675C8246821D0104
(1769184387.059589) can0 1200AA7F#16700000600813C0
(1769184387.059715) can0 1200AA7F#16700000600813C0
(1769184387.060222) can0 02807FAA#678F829D80660104
(1769184387.060415) can0 02807FAA#678F829D804D0104
(1769184387.099614) can0 1200AA7F#16700000BF7910C0
(1769184387.100156) can0 02807FAA#67EF8297801F0104
(1769184387.110821) can0 1200AA7F#16700000BF7910C0
(1769184387.111451) can0 02807FAA#680981F682370104
(1769184387.139648) can0 1200AA7F#16700000C5E90DC0
(1769184387.140216) can0 02807FAA#685182A07EFB0104
(1769184387.164838) can0 1200AA7F#16700000C5E90DC0
(1769184387.165371) can0 02807FAA#688E8267816A0104
(1769184387.179720) can0 1200AA7F#16700000BB580BC0
(1769184387.180297) can0 02807FAA#68B482707F970104
(1769184387.190471) can0 1200AA7F#16700000BB580BC0
(1769184387.190981) can0 02807FAA#68CD826681A50104
(1769184387.220191) can0 1200AA7F#16700000E1C608C0
(1769184387.220756) can0 02807FAA#691A822D81F70104
(1769184387.239629) can0 1200AA7F#16700000E1C608C0
(1769184387.240191) can0 02807FAA#694B827F80DF0104
(1769184387.262002) can0 1200AA7F#167000007D3406C0
(1769184387.262568) can0 02807FAA#6983829D81AE0104
(1769184387.284603) can0 1200AA7F#167000007D3406C0
(1769184387.285150) can0 02807FAA#69BE82697F400104
(1769184387.303679) can0 1200AA7F#16700000D5A103C0
(1769184387.304246) can0 02807FAA#69EF82CB802C0104
(1769184387.319556) can0 1200AA7F#16700000D5A103C0
(1769184387.320133) can0 02807FAA#6A1782BC7F7E0104
(1769184387.345276) can0 1200AA7F#167000002B0F01C0
(1769184387.345807) can0 02807FAA#6A57829D806A0104
(1769184387.364522) can0 1200AA7F#167000002B0F01C0
(1769184387.365070) can0 02807FAA#6A87822D82170104
(1769184387.386979) can0 1200AA7F#167000008AF9FCBF
(1769184387.387555) can0 02807FAA#6AC182A580540104
(1769184387.419874) can0 1200AA7F#167000008AF9FCBF
(1769184387.420459) can0 02807FAA#6B13826580E90104
(1769184387.428760) can0 1200AA7F#16700000DAD5F7BF
(1769184387.429315) can0 02807FAA#6B2C829E7E5C0104
(1769184387.445259) can0 1200AA7F#16700000DAD5F7BF
(1769184387.445837) can0 02807FAA#6B52828181960104
(1769184387.470156) can0 1200AA7F#16700000C2B3F2BF
(1769184387.470710) can0 02807FAA#6B94822E80730104
(1769184387.499459) can0 1200AA7F#16700000C2B3F2BF
(1769184387.500051) can0 02807FAA#6BDD82A87FB20104
(1769184387.511995) can0 1200AA7F#16700000CE93EDBF
(1769184387.512544) can0 02807FAA#6BFB826282250104
(1769184387.529500) can0 1200AA7F#16700000CE93EDBF
(1769184387.530032) can0 02807FAA#6C27827381080104
(1769184387.559560) can0 1200AA7F#167000009276E8BF
(1769184387.560106) can0 02807FAA#6C738265805A0104
(1769184387.572051) can0 1200AA7F#167000009276E8BF
(1769184387.572555) can0 02807FAA#6C9382847F460104
(1769184387.599755) can0 1200AA7F#167000008A5CE3BF
(1769184387.600297) can0 02807FAA#6CD58265811B0104
(1769184387.625210) can0 1200AA7F#167000008A5CE3BF
(1769184387.625786) can0 02807FAA#6D118265818D0104
(1769184387.639599) can0 1200AA7F#167000004246DEBF
(1769184387.640143) can0 02807FAA#6D36826480740104
(1769184387.650585) can0 1200AA7F#167000004246DEBF
(1769184387.651150) can0 02807FAA#6D5282657F700104
(1769184387.679699) can0 1200AA7F#167000005234D9BF
(1769184387.680242) can0 02807FAA#6D9A829D80FC0104
(1769184387.699679) can0 1200AA7F#167000005234D9BF
(1769184387.700206) can0 02807FAA#6DCB8273810A0104
(1769184387.720329) can0 1200AA7F#167000003227D4BF
(1769184387.720918) can0 02807FAA#6E01829D7EE70104
(1769184387.744681) can0 1200AA7F#167000003227D4BF
(1769184387.745224) can0 02807FAA#6E3C828F80CA0104
(1769184387.761937) can0 1200AA7F#16700000721FCFBF
(1769184387.762499) can0 02807FAA#6E6A825E80CD0104
(1769184387.772247) can0 1200AA7F#16700000721FCFBF
(1769184387.772751) can0 02807FAA#6E828281817C0104
(1769184387.803622) can0 1200AA7F#167000009E1DCABF
(1769184387.804195) can0 02807FAA#6ED2826281E00104
(1769184387.825024) can0 1200AA7F#167000009E1DCABF
(1769184387.825586) can0 02807FAA#6F08828580310104
(1769184387.845303) can0 1200AA7F#167000003F22C5BF
(1769184387.845862) can0 02807FAA#6F3A829D81150104
(1769184387.870245) can0 1200AA7F#167000003F22C5BF
(1769184387.870824) can0 02807FAA#6F79825F7FA60104
(1769184387.886965) can0 1200AA7F#16700000DA2DC0BF
(1769184387.887498) can0 02807FAA#6FA28272806D0104
(1769184387.899862) can0 1200AA7F#16700000DA2DC0BF
(1769184387.900499) can0 02807FAA#6FC2829B7F960104
(1769184387.928654) can0 1200AA7F#16700000FF40BBBF
(1769184387.929204) can0 02807FAA#7008825F80BA0104
(1769184387.944717) can0 1200AA7F#16700000FF40BBBF
(1769184387.945257) can0 02807FAA#7030822E804D0104
(1769184387.970307) can0 1200AA7F#16700000325CB6BF
(1769184387.970854) can0 02807FAA#706F829080670104
(1769184387.988228) can0 1200AA7F#16700000325CB6BF
(1769184387.988752) can0 02807FAA#7099822E820C0104
(1769184388.012025) can0 1200AA7F#167000000B80B1BF
(1769184388.012609) can0 02807FAA#70D5829D7F290104
(1769184388.039985) can0 1200AA7F#167000000B80B1BF
(1769184388.040537) can0 02807FAA#7117826580EB0104
(1769184388.059594) can0 1200AA7F#16700000F7ACACBF
(1769184388.059759) can0 1200AA7F#16700000F7ACACBF
(1769184388.060239) can0 02807FAA#7146821181E10104
(1769184388.060478) can0 02807FAA#714781F981F50104
(1769184388.099696) can0 1200AA7F#167000009AE3A7BF
(1769184388.100250) can0 02807FAA#71A381FB82530104
(1769184388.106798) can0 1200AA7F#167000009AE3A7BF
(1769184388.107368) can0 02807FAA#71B3824481D00104
(1769184388.139659) can0 1200AA7F#167000007224A3BF
(1769184388.140186) can0 02807FAA#720081F6822B0104
(1769184388.159849) can0 1200AA7F#167000007224A3BF
(1769184388.160551) can0 02807FAA#7230824880B20104
(1769184388.179602) can0 1200AA7F#167000000A709EBF
(1769184388.179755) can0 1200AA7F#167000000A709EBF
(1769184388.180245) can0 02807FAA#725E822E82020104
(1769184388.180370) can0 02807FAA#725E822D81F60104
(1769184388.220947) can0 1200AA7F#16700000F3C699BF
(1769184388.221493) can0 02807FAA#72BF825E81BF0104
(1769184388.230006) can0 1200AA7F#16700000F3C699BF
(1769184388.230564) can0 02807FAA#72D5822E81190104
(1769184388.261935) can0 1200AA7F#16700000AA2995BF
(1769184388.262489) can0 02807FAA#7321826581250104
(1769184388.284647) can0 1200AA7F#16700000AA2995BF
(1769184388.285254) can0 02807FAA#735782667F5A0104
(1769184388.303678) can0 1200AA7F#16700000CA9890BF
(1769184388.304248) can0 02807FAA#7384825080910104
(1769184388.319626) can0 1200AA7F#16700000CA9890BF
(1769184388.320151) can0 02807FAA#73A9826B7FF50104
(1769184388.346344) can0 1200AA7F#16700000C2148CBF
(1769184388.346897) can0 02807FAA#73E6822D81200104
(1769184388.372959) can0 1200AA7F#16700000C2148CBF
(1769184388.373531) can0 02807FAA#742281F6821B0104
(1769184388.387941) can0 1200AA7F#16700000329E87BF
(1769184388.388485) can0 02807FAA#7445826580CA0104
(1769184388.405305) can0 1200AA7F#16700000329E87BF
(1769184388.405871) can0 02807FAA#746C822E7FA90104
(1769184388.429775) can0 1200AA7F#16700000A23583BF
(1769184388.430347) can0 02807FAA#74A3822D80940104
(1769184388.449856) can0 1200AA7F#16700000A23583BF
(1769184388.450469) can0 02807FAA#74CF81E981040104
(1769184388.474577) can0 1200AA7F#167000001DB77DBF
(1769184388.475146) can0 02807FAA#7507822E807C0104
(1769184388.494700) can0 1200AA7F#167000001DB77DBF
(1769184388.495273) can0 02807FAA#753081BE826A0104
(1769184388.512005) can0 1200AA7F#16700000162175BF
(1769184388.512532) can0 02807FAA#7556821181710104
(1769184388.534591) can0 1200AA7F#16700000162175BF
(1769184388.535118) can0 02807FAA#758781F680F30104
(1769184388.553645) can0 1200AA7F#1670000056AA6CBF
(1769184388.554206) can0 02807FAA#75B1820E7FCA0104
(1769184388.572549) can0 1200AA7F#1670000056AA6CBF
(1769184388.573112) can0 02807FAA#75DB82047FFA0104
(1769184388.595276) can0 1200AA7F#16700000C65364BF
(1769184388.595852) can0 02807FAA#760C822D80D10104
(1769184388.615026) can0 1200AA7F#16700000C65364BF
(1769184388.615569) can0 02807FAA#763782277F500104
(1769184388.639684) can0 1200AA7F#167000007D1E5CBF
(1769184388.640251) can0 02807FAA#766A821280CA0104
(1769184388.659944) can0 1200AA7F#167000007D1E5CBF
(1769184388.660490) can0 02807FAA#769481C17F1A0104
(1769184388.684653) can0 1200AA7F#16700000A40B54BF
(1769184388.685197) can0 02807FAA#76C6820B81A80104
(1769184388.704575) can0 1200AA7F#16700000A40B54BF
(1769184388.705149) can0 02807FAA#76EE81D87FCE0104
(1769184388.720366) can0 1200AA7F#16700000641C4CBF
(1769184388.720937) can0 02807FAA#770D81C580ED0104
(1769184388.737694) can0 1200AA7F#16700000641C4CBF
(1769184388.738275) can0 02807FAA#772F81F680DC0104
(1769184388.762706) can0 1200AA7F#16700000A55144BF
(1769184388.763303) can0 02807FAA#776381F680C10104
(1769184388.789756) can0 1200AA7F#16700000A55144BF
(1769184388.790302) can0 02807FAA#779A822E7F420104
(1769184388.804866) can0 1200AA7F#1670000085AC3CBF
(1769184388.805387) can0 02807FAA#77B781F681850104
(1769184388.811598) can0 1200AA7F#1670000085AC3CBF
(1769184388.812150) can0 02807FAA#77C5820B7FD90104
(1769184388.849785) can0 1200AA7F#167000001C2E35BF
(1769184388.850333) can0 02807FAA#780F81D4820B0104
(1769184388.856529) can0 1200AA7F#167000001C2E35BF
(1769184388.857101) can0 02807FAA#781C81CB81350104
(1769184388.887008) can0 1200AA7F#1670000075D72DBF
(1769184388.887537) can0 02807FAA#785681C47FD00104
(1769184388.910707) can0 1200AA7F#1670000075D72DBF
(1769184388.911256) can0 02807FAA#78828210811D0104
(1769184388.928725) can0 1200AA7F#16700000C4A926BF
(1769184388.929298) can0 02807FAA#78A682277FA70104
(1769184388.945792) can0 1200AA7F#16700000C4A926BF
(1769184388.946350) can0 02807FAA#78C481B8828F0104
(1769184388.970393) can0 1200AA7F#16700000F5A51FBF
(1769184388.970942) can0 02807FAA#78F381CB80E00104
(1769184388.989986) can0 1200AA7F#16700000F5A51FBF
(1769184388.990530) can0 02807FAA#7916818781300104
(1769184389.014848) can0 1200AA7F#1670000025CD18BF
(1769184389.015391) can0 02807FAA#794481BE80FE0104
(1769184389.036070) can0 1200AA7F#1670000025CD18BF
(1769184389.036613) can0 02807FAA#796A81867FAF0104
(1769184389.059712) can0 1200AA7F#167000007D2012BF
(1769184389.060292) can0 02807FAA#7992818C81410104
(1769184389.079655) can0 1200AA7F#167000007D2012BF
(1769184389.080196) can0 02807FAA#79B281A5801C0104
(1769184389.095323) can0 1200AA7F#16700000F4A00BBF
(1769184389.095875) can0 02807FAA#79CC816681A00104
(1769184389.112093) can0 1200AA7F#16700000F4A00BBF
(1769184389.112662) can0 02807FAA#79E781BD80960104
(1769184389.137736) can0 1200AA7F#16700000AD4F05BF
(1769184389.138286) can0 02807FAA#7A1581D37F3F0104
(1769184389.155553) can0 1200AA7F#16700000AD4F05BF
(1769184389.156077) can0 02807FAA#7A31818A82450104
(1769184389.180073) can0 1200AA7F#167000008A5BFEBE
(1769184389.180650) can0 02807FAA#7A5A818E81770104
(1769184389.181570) can0 1200AA7F#167000008A5BFEBE
(1769184389.182149) can0 02807FAA#7A5D81A781130104
(1769184389.224690) can0 1200AA7F#167000006B78F2BE
(1769184389.225234) can0 02807FAA#7AA281B380BE0104
(1769184389.230910) can0 1200AA7F#167000006B78F2BE
(1769184389.231551) can0 02807FAA#7AAC817F80780104
(1769184389.261945) can0 1200AA7F#167000002AF8E6BE
(1769184389.262503) can0 02807FAA#7ADB812480E20104
(1769184389.276195) can0 1200AA7F#167000002AF8E6BE
(1769184389.276757) can0 02807FAA#7AEF818581300104
(1769184389.304808) can0 1200AA7F#167000000ADDDBBE
(1769184389.305346) can0 02807FAA#7B1B819E809A0104
(1769184389.329627) can0 1200AA7F#167000000ADDDBBE
(1769184389.330152) can0 02807FAA#7B3E815F81E10104
(1769184389.346394) can0 1200AA7F#167000003A29D1BE
(1769184389.346944) can0 02807FAA#7B58819480230104
(1769184389.352316) can0 1200AA7F#167000003A29D1BE
(1769184389.352891) can0 02807FAA#7B60814080A60104
(1769184389.389817) can0 1200AA7F#16700000CADEC6BE
(1769184389.390390) can0 02807FAA#7B95811B816B0104
(1769184389.397205) can0 1200AA7F#16700000CADEC6BE
(1769184389.397728) can0 02807FAA#7B9E814E81A10104
(1769184389.434778) can0 1200AA7F#16700000DAFFBCBE
(1769184389.435334) can0 02807FAA#7BD08155809A0104
(1769184389.441547) can0 1200AA7F#16700000DAFFBCBE
(1769184389.442107) can0 02807FAA#7BDA81557F850104
(1769184389.470374) can0 1200AA7F#167000009A8EB3BE
(1769184389.470943) can0 02807FAA#7BFB814E81780104
(1769184389.494967) can0 1200AA7F#167000009A8EB3BE
(1769184389.495535) can0 02807FAA#7C1B814E80060104
(1769184389.511979) can0 1200AA7F#167000004A8DAABE
(1769184389.512539) can0 02807FAA#7C32814E7F850104
(1769184389.530181) can0 1200AA7F#167000004A8DAABE
(1769184389.530757) can0 02807FAA#7C48810481410104
(1769184389.555527) can0 1200AA7F#16700000EAFDA1BE
(1769184389.556103) can0 02807FAA#7C67812680AA0104
(1769184389.575071) can0 1200AA7F#16700000EAFDA1BE
(1769184389.575631) can0 02807FAA#7C7C811680D50104
(1769184389.599707) can0 1200AA7F#16700000AAE299BE
(1769184389.600228) can0 02807FAA#7C9981167FC90104
(1769184389.620730) can0 1200AA7F#16700000AAE299BE
(1769184389.621271) can0 02807FAA#7CAD80FF826E0104
(1769184389.637016) can0 1200AA7F#16700000BB3D92BE
(1769184389.637590) can0 02807FAA#7CBF811780230104
(1769184389.660918) can0 1200AA7F#16700000BB3D92BE
(1769184389.661437) can0 02807FAA#7CD8810D80E20104
(1769184389.678733) can0 1200AA7F#167000001A118BBE
(1769184389.679287) can0 02807FAA#7CED81167EB50104
(1769184389.704751) can0 1200AA7F#167000001A118BBE
(1769184389.705309) can0 02807FAA#7D0480ED819A0104
(1769184389.720416) can0 1200AA7F#167000005A5F84BE
(1769184389.721027) can0 02807FAA#7D1480FF817C0104
(1769184389.741162) can0 1200AA7F#167000005A5F84BE
(1769184389.741678) can0 02807FAA#7D2780D0814D0104
(1769184389.764760) can0 1200AA7F#1670000055547CBE
(1769184389.765333) can0 02807FAA#7D3C80D080800104
(1769184389.785319) can0 1200AA7F#1670000055547CBE
(1769184389.785854) can0 02807FAA#7D4E80A67F8D0104
(1769184389.809590) can0 1200AA7F#16700000D5E770BE
(1769184389.810141) can0 02807FAA#7D5F807D816D0104
(1769184389.830114) can0 1200AA7F#16700000D5E770BE
(1769184389.830658) can0 02807FAA#7D6F80CE80690104
(1769184389.845409) can0 1200AA7F#16700000947D66BE
(1769184389.845980) can0 02807FAA#7D7A80AE80CE0104
(1769184389.870262) can0 1200AA7F#16700000947D66BE
(1769184389.870796) can0 02807FAA#7D8D80AE80E70104
(1769184389.887632) can0 1200AA7F#1670000094195DBE
(1769184389.888186) can0 02807FAA#7D9B80CE7FAC0104
(1769184389.900544) can0 1200AA7F#1670000094195DBE
(1769184389.901100) can0 02807FAA#7DA580A37F190104
(1769184389.929843) can0 1200AA7F#1670000054C054BE
(1769184389.930394) can0 02807FAA#7DB6807281070104
(1769184389.950014) can0 1200AA7F#1670000054C054BE
(1769184389.950563) can0 02807FAA#7DC0809E823E0104
(1769184389.974734) can0 1200AA7F#1670000014764DBE
(1769184389.975279) can0 02807FAA#7DD0806F80A60104
(1769184389.995819) can0 1200AA7F#1670000014764DBE
(1769184389.996346) can0 02807FAA#7DD9805681640104
(1769184390.012003) can0 1200AA7F#16700000363F47BE
(1769184390.012579) can0 02807FAA#7DE1809F81BF0104
(1769184390.034872) can0 1200AA7F#16700000363F47BE
(1769184390.035414) can0 02807FAA#7DED8089806F0104
(1769184390.054443) can0 1200AA7F#16700000F51F42BE
(1769184390.054612) can0 1200AA7F#16700000F51F42BE
(1769184390.055089) can0 02807FAA#7DF7806F7FAE0104
(1769184390.055238) can0 02807FAA#7DF7806F7FA40104
(1769184390.097137) can0 1200AA7F#16700000951C3EBE
(1769184390.097687) can0 02807FAA#7E0680387FE50104
(1769184390.125390) can0 1200AA7F#16700000951C3EBE
(1769184390.125937) can0 02807FAA#7E0F806B80E00104
(1769184390.139689) can0 1200AA7F#1670000074393BBE
(1769184390.140234) can0 02807FAA#7E13803781460104
(1769184390.155366) can0 1200AA7F#1670000074393BBE
(1769184390.155932) can0 02807FAA#7E16803780E90104
(1769184390.184633) can0 1200AA7F#16700000D47A39BE
(1769184390.185179) can0 02807FAA#7E1D800680E60104
(1769184390.200453) can0 1200AA7F#16700000D47A39BE
(1769184390.201002) can0 02807FAA#7E1F800180F80104
(1769184390.220287) can0 1200AA7F#16700000D5E438BE
(1769184390.220816) can0 02807FAA#7E22802980B20104
(1769184390.244970) can0 1200AA7F#16700000D5E438BE
(1769184390.245548) can0 02807FAA#7E25803680C50104
(1769184390.262051) can0 1200AA7F#16700000D5E438BE
(1769184390.262620) can0 02807FAA#7E27800D810E0104
(1769184390.304743) can0 1200AA7F#16700000B5DB39BE
(1769184390.305263) can0 02807FAA#7E287FFF80BB0104
(1769184390.325951) can0 1200AA7F#16700000B5DB39BE
(1769184390.326569) can0 02807FAA#7E277FFF80580104
(1769184390.349858) can0 1200AA7F#1670000034BA3CBE
(1769184390.350423) can0 02807FAA#7E277FFF80580104
(1769184390.371764) can0 1200AA7F#1670000034BA3CBE
(1769184390.372285) can0 02807FAA#7E267FC7804B0104
(1769184390.387606) can0 1200AA7F#16700000347741BE
(1769184390.388228) can0 02807FAA#7E237FFC80290104
(1769184390.410167) can0 1200AA7F#16700000347741BE
(1769184390.410695) can0 02807FAA#7E217F967F2C0104
(1769184390.428700) can0 1200AA7F#16700000B40948BE
(1769184390.429222) can0 02807FAA#7E1C7FC1801D0104
(1769184390.454712) can0 1200AA7F#16700000B40948BE
(1769184390.455238) can0 02807FAA#7E157F9C7FA90104
(1769184390.470407) can0 1200AA7F#16700000746850BE
(1769184390.470973) can0 02807FAA#7E107FBD7FD30104
(1769184390.484808) can0 1200AA7F#16700000746850BE
(1769184390.485337) can0 02807FAA#7E0B7FAE7EE80104
(1769184390.514804) can0 1200AA7F#16700000548A5ABE
(1769184390.515328) can0 02807FAA#7DFD7F8F7E290104
(1769184390.529846) can0 1200AA7F#16700000548A5ABE
(1769184390.530438) can0 02807FAA#7DF77F8A7E5A0104
(1769184390.559685) can0 1200AA7F#16700000556666BE
(1769184390.560235) can0 02807FAA#7DE67F7980480104
(1769184390.575592) can0 1200AA7F#16700000556666BE
(1769184390.576169) can0 02807FAA#7DDE7F68802C0104
(1769184390.595289) can0 1200AA7F#1670000054F373BE
(1769184390.595831) can0 02807FAA#7DD37F657FBC0104
(1769184390.619878) can0 1200AA7F#1670000054F373BE
(1769184390.620437) can0 02807FAA#7DC17F22805C0104
(1769184390.638397) can0 1200AA7F#167000000A9481BE
(1769184390.638982) can0 02807FAA#7DB27F737F8B0104
(1769184390.657086) can0 1200AA7F#167000000A9481BE
(1769184390.657643) can0 02807FAA#7DA57F537E0E0104
(1769184390.679749) can0 1200AA7F#16700000CAFD89BE
(1769184390.680356) can0 02807FAA#7D917F2F7EF50104
(1769184390.700468) can0 1200AA7F#16700000CAFD89BE
(1769184390.701001) can0 02807FAA#7D7F7F217F5C0104
(1769184390.724974) can0 1200AA7F#167000005A3293BE
(1769184390.725562) can0 02807FAA#7D687F0E7FC30104
(1769184390.745028) can0 1200AA7F#167000005A3293BE
(1769184390.745617) can0 02807FAA#7D557F3C7F210104
(1769184390.761985) can0 1200AA7F#167000002A2D9DBE
(1769184390.762560) can0 02807FAA#7D467F1F7E6E0104
(1769184390.785412) can0 1200AA7F#167000002A2D9DBE
(1769184390.785952) can0 02807FAA#7D2C7ED67FB90104
(1769184390.804973) can0 1200AA7F#16700000BAE9A7BE
(1769184390.805332) can0 1200AA7F#16700000BAE9A7BE
(1769184390.805558) can0 02807FAA#7D157ED5803C0104
(1769184390.805910) can0 02807FAA#7D147ED5804C0104
(1769184390.846589) can0 1200AA7F#167000005A63B3BE
(1769184390.847158) can0 02807FAA#7CE67EC17DAD0104
(1769184390.865377) can0 1200AA7F#167000005A63B3BE
(1769184390.865917) can0 02807FAA#7CCE7ED57F3C0104
(1769184390.889770) can0 1200AA7F#167000008A95BFBE
(1769184390.890314) can0 02807FAA#7CAD7EAC80C10104
(1769184390.909854) can0 1200AA7F#167000008A95BFBE
(1769184390.910372) can0 02807FAA#7C957ED37E960104
(1769184390.934862) can0 1200AA7F#16700000CA7BCCBE
(1769184390.935419) can0 02807FAA#7C727ED3802E0104
(1769184390.955445) can0 1200AA7F#16700000CA7BCCBE
(1769184390.955991) can0 02807FAA#7C577E997FE70104
(1769184390.971220) can0 1200AA7F#167000007A11DABE
(1769184390.971791) can0 02807FAA#7C407EDA7F0D0104
(1769184390.995407) can0 1200AA7F#167000007A11DABE
(1769184390.995942) can0 02807FAA#7C1E7E787F380104
(1769184391.013181) can0 1200AA7F#167000000A52E8BE
(1769184391.013720) can0 02807FAA#7C017E5F7F770104
(1769184391.039737) can0 1200AA7F#167000000A52E8BE
(1769184391.040275) can0 02807FAA#7BD97E787DCA0104
(1769184391.056918) can0 1200AA7F#16700000FA38F7BE
(1769184391.057489) can0 02807FAA#7BBB7E787FE50104
(1769184391.077480) can0 1200AA7F#16700000FA38F7BE
(1769184391.078050) can0 02807FAA#7B997E4280090104
(1769184391.099919) can0 1200AA7F#16700000DD6003BF
(1769184391.100461) can0 02807FAA#7B757E6D7E060104
(1769184391.120828) can0 1200AA7F#16700000DD6003BF
(1769184391.121401) can0 02807FAA#7B517E407EAB0104
(1769184391.137664) can0 1200AA7F#16700000D5730BBF
(1769184391.138233) can0 02807FAA#7B337E4B7FD20104
(1769184391.160053) can0 1200AA7F#16700000D5730BBF
(1769184391.160586) can0 02807FAA#7B0C7DED7FBD0104
(1769184391.180181) can0 1200AA7F#167000002ED313BF
(1769184391.180708) can0 02807FAA#7AE67E08802D0104
(1769184391.182011) can0 1200AA7F#167000002ED313BF
(1769184391.182580) can0 02807FAA#7AE27E0C80590104
(1769184391.221699) can0 1200AA7F#16700000867C1CBF
(1769184391.222269) can0 02807FAA#7A977DD17FA90104
(1769184391.264386) can0 1200AA7F#16700000867C1CBF
(1769184391.264911) can0 02807FAA#7A427E237F980104
(1769184391.265218) can0 1200AA7F#16700000AD6D25BF
(1769184391.265757) can0 02807FAA#7A417E097F740104
(1769184391.287595) can0 1200AA7F#16700000AD6D25BF
(1769184391.288134) can0 02807FAA#7A167E237D530104
(1769184391.309791) can0 1200AA7F#1670000055A42EBF
(1769184391.310369) can0 02807FAA#79E77E0A7F820104
(1769184391.341312) can0 1200AA7F#1670000055A42EBF
(1769184391.341837) can0 02807FAA#79A97D6C7F110104
(1769184391.345675) can0 1200AA7F#16700000351E38BF
(1769184391.346226) can0 02807FAA#799F7DD180130104
(1769184391.370300) can0 1200AA7F#16700000351E38BF
(1769184391.370852) can0 02807FAA#796A7E087FA50104
(1769184391.387935) can0 1200AA7F#1670000006D941BF
(1769184391.388469) can0 02807FAA#79437D997FFF0104
(1769184391.402522) can0 1200AA7F#1670000006D941BF
(1769184391.403116) can0 02807FAA#79227DB3805F0104
(1769184391.429333) can0 1200AA7F#1670000085D24BBF
(1769184391.429859) can0 02807FAA#78E67DB57FFA0104
(1769184391.451680) can0 1200AA7F#1670000085D24BBF
(1769184391.452227) can0 02807FAA#78B27E087FDC0104
(1769184391.477259) can0 1200AA7F#16700000660856BF
(1769184391.477432) can0 1200AA7F#16700000660856BF
(1769184391.477919) can0 02807FAA#78777D9E7FBE0104
(1769184391.478080) can0 02807FAA#78777D997FC90104
(1769184391.514761) can0 1200AA7F#167000005E7860BF
(1769184391.515342) can0 02807FAA#78237DD07F370104
(1769184391.529669) can0 1200AA7F#167000005E7860BF
(1769184391.530182) can0 02807FAA#78007DD17FC80104
(1769184391.561225) can0 1200AA7F#167000002D206BBF
(1769184391.561771) can0 02807FAA#77B47D617F860104
(1769184391.575862) can0 1200AA7F#167000002D206BBF
(1769184391.576418) can0 02807FAA#77937DC37E320104
(1769184391.598456) can0 1200AA7F#1670000085FD75BF
(1769184391.599019) can0 02807FAA#775B7D96802A0104
(1769184391.628264) can0 1200AA7F#1670000085FD75BF
(1769184391.628869) can0 02807FAA#77117D7E7F220104
(1769184391.637608) can0 1200AA7F#167000000E8780BF
(1769184391.638196) can0 02807FAA#76F97D647FFC0104
(1769184391.650625) can0 1200AA7F#167000000E8780BF
(1769184391.651175) can0 02807FAA#76DA7D7D7DF80104
(1769184391.684746) can0 1200AA7F#16700000E32786BF
(1769184391.685314) can0 02807FAA#76817D997D970104
(1769184391.695945) can0 1200AA7F#16700000E32786BF
(1769184391.696538) can0 02807FAA#76627D647FEA0104
(1769184391.720858) can0 1200AA7F#167000000BE08BBF
(1769184391.721435) can0 02807FAA#76237D807DF70104
(1769184391.745341) can0 1200AA7F#167000000BE08BBF
(1769184391.745894) can0 02807FAA#75E07D6181250104
(1769184391.761967) can0 1200AA7F#167000006AAE91BF
(1769184391.762520) can0 02807FAA#75B47CF17FED0104
(1769184391.772954) can0 1200AA7F#167000006AAE91BF
(1769184391.773517) can0 02807FAA#75957D347FF00104
(1769184391.806519) can0 1200AA7F#16700000E29197BF
(1769184391.807094) can0 02807FAA#75387D5380240104
(1769184391.818634) can0 1200AA7F#16700000E29197BF
(1769184391.819166) can0 02807FAA#75197DA77D8A0104
(1769184391.845730) can0 1200AA7F#167000004A899DBF
(1769184391.846259) can0 02807FAA#74CC7D5680640104
(1769184391.867664) can0 1200AA7F#167000004A899DBF
(1769184391.868240) can0 02807FAA#748F7D617F9E0104
(1769184391.892279) can0 1200AA7F#167000007A93A3BF
(1769184391.892823) can0 02807FAA#74497CF17FD70104
(1769184391.916638) can0 1200AA7F#167000007A93A3BF
(1769184391.917187) can0 02807FAA#74077D7D7E060104
(1769184391.928867) can0 1200AA7F#167000005AAFA9BF
(1769184391.929419) can0 02807FAA#73E27D3080150104
(1769184391.953417) can0 1200AA7F#167000005AAFA9BF
(1769184391.953938) can0 02807FAA#739F7CD67DE80104
(1769184391.970331) can0 1200AA7F#16700000B7DBAFBF
(1769184391.970910) can0 02807FAA#736C7D1980370104
(1769184391.990350) can0 1200AA7F#16700000B7DBAFBF
(1769184391.990887) can0 02807FAA#73327CB580990104
(1769184392.014671) can0 1200AA7F#167000007B17B6BF
(1769184392.015197) can0 02807FAA#72EB7CF47DDF0104
(1769184392.038979) can0 1200AA7F#167000007B17B6BF
(1769184392.039553) can0 02807FAA#72A27D7D7EC50104
(1769184392.053627) can0 1200AA7F#167000007B61BCBF
(1769184392.054172) can0 02807FAA#72777CF1802F0104
(1769184392.075390) can0 1200AA7F#167000007B61BCBF
(1769184392.075910) can0 02807FAA#723A7D4B7D120104
(1769184392.100815) can0 1200AA7F#1670000097B8C2BF
(1769184392.101360) can0 02807FAA#71EB7D927E860104
(1769184392.124742) can0 1200AA7F#1670000097B8C2BF
(1769184392.125274) can0 02807FAA#71A47D19800D0104
(1769184392.137078) can0 1200AA7F#16700000AA1BC9BF
(1769184392.137623) can0 02807FAA#71817D057D980104
(1769184392.150149) can0 1200AA7F#16700000AA1BC9BF
(1769184392.150647) can0 02807FAA#71587CD47F890104
(1769184392.178680) can0 1200AA7F#167000008A89CFBF
(1769184392.179200) can0 02807FAA#71017D117FC00104
(1769184392.198858) can0 1200AA7F#167000008A89CFBF
(1769184392.199382) can0 02807FAA#70C57CCE7E150104
(1769184392.222752) can0 1200AA7F#167000001E01D6BF
(1769184392.223320) can0 02807FAA#707A7D637DFF0104
(1769184392.247701) can0 1200AA7F#167000001E01D6BF
(1769184392.248262) can0 02807FAA#702C7D107FCA0104
(1769184392.261968) can0 1200AA7F#167000004281DCBF
(1769184392.262510) can0 02807FAA#70007C947FA40104
(1769184392.284174) can0 1200AA7F#167000004281DCBF
(1769184392.284714) can0 02807FAA#6FBD7D147DDF0104
(1769184392.308385) can0 1200AA7F#16700000C608E3BF
(1769184392.308986) can0 02807FAA#6F6F7D647DF90104
(1769184392.346630) can0 1200AA7F#167000009396E9BF
(1769184392.347115) can0 1200AA7F#167000009396E9BF
(1769184392.347161) can0 02807FAA#6EFB7CB97F5C0104
(1769184392.347677) can0 02807FAA#6EF97C877F7C0104
(1769184392.387157) can0 1200AA7F#167000007E29F0BF
(1769184392.387789) can0 02807FAA#6E797CB97F9F0104
(1769184392.418934) can0 1200AA7F#167000007E29F0BF
(1769184392.419498) can0 02807FAA#6E147CB980410104
(1769184392.430950) can0 1200AA7F#1670000066C0F6BF
(1769184392.431534) can0 02807FAA#6DF07CD77E100104
(1769184392.455110) can0 1200AA7F#1670000066C0F6BF
(1769184392.455689) can0 02807FAA#6DA37D617E410104
(1769184392.470655) can0 1200AA7F#167000002A5AFDBF
(1769184392.471213) can0 02807FAA#6D707CF17F980104
(1769184392.492165) can0 1200AA7F#167000002A5AFDBF
(1769184392.492724) can0 02807FAA#6D2C7C747F310104
(1769184392.516716) can0 1200AA7F#16700000D0FA01C0
(1769184392.517267) can0 02807FAA#6CDE7CA87E530104
(1769184392.540746) can0 1200AA7F#16700000D0FA01C0
(1769184392.541358) can0 02807FAA#6C927D6B7DC40104
(1769184392.553688) can0 1200AA7F#16700000D54805C0
(1769184392.554218) can0 02807FAA#6C677CB2802C0104
(1769184392.578326) can0 1200AA7F#16700000D54805C0
(1769184392.578830) can0 02807FAA#6C1A7C6D7FB60104
(1769184392.595333) can0 1200AA7F#16700000929608C0
(1769184392.595925) can0 02807FAA#6BE27D437E5A0104
(1769184392.614808) can0 1200AA7F#16700000929608C0
(1769184392.615375) can0 02807FAA#6BA27CBB7FBB0104
(1769184392.639280) can0 1200AA7F#1670000072E30BC0
(1769184392.639856) can0 02807FAA#6B527CA6801F0104
(1769184392.663818) can0 1200AA7F#1670000072E30BC0
(1769184392.664320) can0 02807FAA#6B057C817F4D0104
(1769184392.679977) can0 1200AA7F#16700000E52E0FC0
(1769184392.680568) can0 02807FAA#6AD07D317EF80104
(1769184392.701144) can0 1200AA7F#16700000E52E0FC0
(1769184392.701683) can0 02807FAA#6A8C7CCA80200104
(1769184392.725498) can0 1200AA7F#167000005C7812C0
(1769184392.726064) can0 02807FAA#6A3D7CD57F570104
(1769184392.740476) can0 1200AA7F#167000005C7812C0
(1769184392.741037) can0 02807FAA#6A107D477DEE0104
(1769184392.763994) can0 1200AA7F#1670000041BF15C0
(1769184392.764585) can0 02807FAA#69C47D297F190104
(1769184392.789757) can0 1200AA7F#1670000041BF15C0
(1769184392.790350) can0 02807FAA#69717CA780720104
(1769184392.810759) can0 1200AA7F#16700000050319C0
(1769184392.811313) can0 02807FAA#692D7CB980750104
(1769184392.811680) can0 1200AA7F#16700000050319C0
(1769184392.812243) can0 02807FAA#692A7CDA803D0104
(1769184392.850008) can0 1200AA7F#1670000015431CC0
(1769184392.850519) can0 02807FAA#68B37D287F340104
(1769184392.884683) can0 1200AA7F#1670000015431CC0
(1769184392.885239) can0 02807FAA#68477CC67D4B0104
(1769184392.899686) can0 1200AA7F#16700000DE7E1FC0
(1769184392.900253) can0 02807FAA#68157D017F800104
(1769184392.922180) can0 1200AA7F#16700000DE7E1FC0
(1769184392.922666) can0 02807FAA#67D17CB1801A0104
(1769184392.938305) can0 1200AA7F#16700000D1B522C0
(1769184392.938885) can0 02807FAA#679F7D457E860104
(1769184392.961850) can0 1200AA7F#16700000D1B522C0
(1769184392.962410) can0 02807FAA#67577CA7804C0104
(1769184392.972031) can0 1200AA7F#167000005AE725C0
(1769184392.972539) can0 02807FAA#673A7D557E040104
(1769184392.998674) can0 1200AA7F#167000005AE725C0
(1769184392.999258) can0 02807FAA#66E47D437E2C0104
(1769184393.018656) can0 1200AA7F#16700000E71229C0
(1769184393.018754) can0 1200AA7F#16700000E71229C0
(1769184393.019285) can0 02807FAA#66A27CCC800F0104
(1769184393.019428) can0 02807FAA#66A27CC37FFD0104
(1769184393.055461) can0 1200AA7F#16700000E7372CC0
(1769184393.056022) can0 02807FAA#662E7D527E650104
(1769184393.079427) can0 1200AA7F#16700000E7372CC0
(1769184393.079963) can0 02807FAA#65E17CB9809E0104
(1769184393.095652) can0 1200AA7F#16700000C9552FC0
(1769184393.096205) can0 02807FAA#65AC7C83805B0104
(1769184393.117348) can0 1200AA7F#16700000C9552FC0
(1769184393.117948) can0 02807FAA#65697CBA7D600104
(1769184393.141321) can0 1200AA7F#16700000F96B32C0
(1769184393.141876) can0 02807FAA#651A7D347E4A0104
(1769184393.165464) can0 1200AA7F#16700000F96B32C0
(1769184393.166016) can0 02807FAA#64CD7D217F780104
(1769184393.179110) can0 1200AA7F#16700000E77935C0
(1769184393.179693) can0 02807FAA#64A47C947F7E0104
(1769184393.195053) can0 1200AA7F#16700000E77935C0
(1769184393.195567) can0 02807FAA#64717CFF807D0104
(1769184393.226426) can0 1200AA7F#16700000017F38C0
(1769184393.227010) can0 02807FAA#640F7D617E690104
(1769184393.244399) can0 1200AA7F#16700000017F38C0
(1769184393.244926) can0 02807FAA#63D97D127F000104
(1769184393.263526) can0 1200AA7F#16700000B47A3BC0
(1769184393.263777) can0 1200AA7F#16700000B47A3BC0
(1769184393.264106) can0 02807FAA#63A17CFA7E690104
(1769184393.264457) can0 02807FAA#63A07CF17E680104
(1769184393.303660) can0 1200AA7F#167000006E6C3EC0
(1769184393.304184) can0 02807FAA#63257CEE7FA10104
(1769184393.325850) can0 1200AA7F#167000006E6C3EC0
(1769184393.326438) can0 02807FAA#62E47C9B7F300104
(1769184393.349290) can0 1200AA7F#16700000A05341C0
(1769184393.349855) can0 02807FAA#629C7D687DA20104
(1769184393.373887) can0 1200AA7F#16700000A05341C0
(1769184393.374421) can0 02807FAA#62517D2980B20104
(1769184393.386914) can0 1200AA7F#16700000B62F44C0
(1769184393.387434) can0 02807FAA#622D7CC17F7C0104
(1769184393.409915) can0 1200AA7F#16700000B62F44C0
(1769184393.410463) can0 02807FAA#61E97D997D9D0104
(1769184393.434792) can0 1200AA7F#167000001B0047C0
(1769184393.435342) can0 02807FAA#619E7D31801F0104
(1769184393.452114) can0 1200AA7F#167000001B0047C0
(1769184393.452698) can0 02807FAA#616D7CD1813F0104
(1769184393.471674) can0 1200AA7F#1670000044C449C0
(1769184393.472195) can0 02807FAA#61377D997E000104
(1769184393.496230) can0 1200AA7F#1670000044C449C0
(1769184393.496787) can0 02807FAA#60F07CF880790104
(1769184393.511929) can0 1200AA7F#167000009B7B4CC0
(1769184393.512497) can0 02807FAA#60C57CDF7EEC0104
(1769184393.533086) can0 1200AA7F#167000009B7B4CC0
(1769184393.533676) can0 02807FAA#60877D8E7FC90104
(1769184393.557452) can0 1200AA7F#1670000090254FC0
(1769184393.558012) can0 02807FAA#60427D2980150104
(1769184393.582713) can0 1200AA7F#1670000090254FC0
(1769184393.583227) can0 02807FAA#5FFE7D2980090104
(1769184393.595329) can0 1200AA7F#167000008FC151C0
(1769184393.595890) can0 02807FAA#5FDA7D2980980104
(1769184393.618873) can0 1200AA7F#167000008FC151C0
(1769184393.619414) can0 02807FAA#5F9B7D407F3C0104
(1769184393.643093) can0 1200AA7F#16700000054F54C0
(1769184393.643667) can0 02807FAA#5F5A7D217F240104
(1769184393.667857) can0 1200AA7F#16700000054F54C0
(1769184393.668412) can0 02807FAA#5F197DB67E6D0104
(1769184393.680437) can0 1200AA7F#1670000064CD56C0
(1769184393.681009) can0 02807FAA#5EF87D297FC60104
(1769184393.704556) can0 1200AA7F#1670000064CD56C0
(1769184393.705076) can0 02807FAA#5EBA7DD17E830104
(1769184393.721247) can0 1200AA7F#16700000183C59C0
(1769184393.721797) can0 02807FAA#5E8E7D5A7FDA0104
(1769184393.741111) can0 1200AA7F#16700000183C59C0
(1769184393.741690) can0 02807FAA#5E5C7DD47D580104
(1769184393.765681) can0 1200AA7F#16700000929A5BC0
(1769184393.766281) can0 02807FAA#5E1B7D617FDE0104
(1769184393.790176) can0 1200AA7F#16700000929A5BC0
(1769184393.790736) can0 02807FAA#5DDF7D5B80610104
(1769184393.803739) can0 1200AA7F#167000003CE85DC0
(1769184393.804289) can0 02807FAA#5DBD7D7D80550104
(1769184393.827257) can0 1200AA7F#167000003CE85DC0
(1769184393.827734) can0 02807FAA#5D857D7E7FA40104
(1769184393.851217) can0 1200AA7F#16700000832460C0
(1769184393.851833) can0 02807FAA#5D4B7DD87D5D0104
(1769184393.876218) can0 1200AA7F#16700000832460C0
(1769184393.876757) can0 02807FAA#5D0F7DA37FD10104
(1769184394.072978) can0 1200AA7F#16700000DC4E62C0
(1769184394.073130) can0 1200AA7F#16700000DC4E62C0
(1769184394.073606) can0 02807FAA#5C567FFF81290104
(1769184394.073754) can0 02807FAA#5C567FFF812B0104
(1769184394.084860) can0 1200AA7F#16700000B16664C0
(1769184394.085400) can0 02807FAA#5C557FFC803E0104
(1769184394.138238) can0 1200AA7F#167000006F6B66C0
(1769184394.138815) can0 02807FAA#5C3F7F337DD30104
(1769184394.144692) can0 1200AA7F#167000006F6B66C0
(1769184394.145250) can0 02807FAA#5C397EF77DD40104
(1769184394.159890) can0 1200AA7F#16700000875C68C0
(1769184394.160416) can0 02807FAA#5C257E987EFF0104
(1769184394.161493) can0 1200AA7F#16700000875C68C0
(1769184394.162065) can0 02807FAA#5C237E987EDD0104
(1769184394.193827) can0 1200AA7F#1670000063396AC0
(1769184394.194366) can0 02807FAA#5BE57DD77F540104
(1769184394.195364) can0 1200AA7F#1670000063396AC0
(1769184394.195910) can0 02807FAA#5BE27DDE7EAD0104
(1769184394.222549) can0 1200AA7F#1670000077016CC0
(1769184394.223073) can0 02807FAA#5B9C7D4581330104
(1769184394.268892) can0 1200AA7F#1670000077016CC0
(1769184394.269422) can0 02807FAA#5B227D9A7E040104
(1769184394.270689) can0 1200AA7F#167000002FB46DC0
(1769184394.271244) can0 02807FAA#5B1D7D5D7E820104
(1769184394.297313) can0 1200AA7F#167000002FB46DC0
(1769184394.297868) can0 02807FAA#5AD97DCD7FF40104
(1769184394.307159) can0 1200AA7F#16700000F5506FC0
(1769184394.307692) can0 02807FAA#5AC47DA77D970104
(1769184394.329383) can0 1200AA7F#16700000F5506FC0
(1769184394.329917) can0 02807FAA#5A907DCF7FFE0104
(1769184394.345352) can0 1200AA7F#1670000039D770C0
(1769184394.345897) can0 02807FAA#5A6E7E087DD90104
(1769184394.377471) can0 1200AA7F#1670000039D770C0
(1769184394.378020) can0 02807FAA#5A297E0880B10104
(1769184394.389927) can0 1200AA7F#16700000714672C0
(1769184394.390500) can0 02807FAA#5A137E097D8E0104
(1769184394.414629) can0 1200AA7F#16700000714672C0
(1769184394.415204) can0 02807FAA#59E67E427F830104
(1769184394.429153) can0 1200AA7F#16700000019E73C0
(1769184394.429693) can0 02807FAA#59CB7E77804E0104
(1769184394.451110) can0 1200AA7F#16700000019E73C0
(1769184394.451604) can0 02807FAA#59A87E407FE10104
(1769184394.477821) can0 1200AA7F#1670000057DD74C0
(1769184394.478391) can0 02807FAA#597D7E94808F0104
(1769184394.500090) can0 1200AA7F#1670000057DD74C0
(1769184394.500725) can0 02807FAA#59617EB07D770104
(1769184394.512349) can0 1200AA7F#16700000EB0376C0
(1769184394.512901) can0 02807FAA#59507E8E7EDA0104
(1769184394.537115) can0 1200AA7F#16700000EB0376C0
(1769184394.537711) can0 02807FAA#592E7E8F7F7D0104
(1769184394.553719) can0 1200AA7F#16700000271177C0
(1769184394.554290) can0 02807FAA#59177EE680260104
(1769184394.574302) can0 1200AA7F#16700000271177C0
(1769184394.574851) can0 02807FAA#58FE7EB07E9B0104
(1769184394.600249) can0 1200AA7F#167000006F0478C0
(1769184394.600799) can0 02807FAA#58DD7ED17FA80104
(1769184394.623871) can0 1200AA7F#167000006F0478C0
(1769184394.624455) can0 02807FAA#58C57EF97FEA0104
(1769184394.637374) can0 1200AA7F#167000003FDD78C0
(1769184394.637932) can0 02807FAA#58B77F167EF70104
(1769184394.659743) can0 1200AA7F#167000003FDD78C0
(1769184394.660280) can0 02807FAA#58A17EE87EC10104
(1769184394.684067) can0 1200AA7F#16700000FF9A79C0
(1769184394.684704) can0 02807FAA#58887F207F370104
(1769184394.708888) can0 1200AA7F#16700000FF9A79C0
(1769184394.709464) can0 02807FAA#58737F297F9E0104
(1769184394.720717) can0 1200AA7F#167000001F3D7AC0
(1769184394.721295) can0 02807FAA#58697F20803C0104
(1769184394.745583) can0 1200AA7F#167000001F3D7AC0
(1769184394.746172) can0 02807FAA#58567F487E640104
(1769184394.762002) can0 1200AA7F#167000000DC37AC0
(1769184394.762552) can0 02807FAA#584A7F307E8B0104
(1769184394.794450) can0 1200AA7F#167000000DC37AC0
(1769184394.794950) can0 02807FAA#58327F387FDA0104
(1769184394.806495) can0 1200AA7F#16700000312C7BC0
(1769184394.807071) can0 02807FAA#582B7F637FF40104
(1769184394.830913) can0 1200AA7F#16700000312C7BC0
(1769184394.831458) can0 02807FAA#581F7F837FEF0104
(1769184394.846768) can0 1200AA7F#1670000005787BC0
(1769184394.847338) can0 02807FAA#58177F8580260104
(1769184394.868536) can0 1200AA7F#1670000005787BC0
(1769184394.869056) can0 02807FAA#580D7F8F80B90104
(1769184394.892401) can0 1200AA7F#16700000E9A57BC0
(1769184394.892958) can0 02807FAA#58067FC57F6A0104
(1769184394.916306) can0 1200AA7F#16700000E9A57BC0
(1769184394.916851) can0 02807FAA#58007FC67EF40104
(1769184394.928636) can0 1200AA7F#167000005AB57BC0
(1769184394.929202) can0 02807FAA#57FD7F9C7E8D0104
(1769184394.953153) can0 1200AA7F#167000005AB57BC0
(1769184394.953660) can0 02807FAA#57F97FC97E2B0104
(1769184394.970282) can0 1200AA7F#16700000FCAB7BC0
(1769184394.970855) can0 02807FAA#57F77FC87E230104
(1769184394.990059) can0 1200AA7F#16700000FCAB7BC0
(1769184394.990628) can0 02807FAA#57F67FFF7E1C0104
(1769184395.018281) can0 1200AA7F#1670000012907BC0
(1769184395.018848) can0 02807FAA#57F57FE37E230104
(1769184395.039208) can0 1200AA7F#1670000012907BC0
(1769184395.039759) can0 02807FAA#57F67FFF7E0F0104
(1769184395.054356) can0 1200AA7F#16700000DF617BC0
(1769184395.054896) can0 02807FAA#57F67FFF7E410104
(1769184395.076040) can0 1200AA7F#16700000DF617BC0
(1769184395.076617) can0 02807FAA#57F880297EF20104
(1769184395.100739) can0 1200AA7F#16700000A8217BC0
(1769184395.101291) can0 02807FAA#57FC80377FA80104
(1769184395.124458) can0 1200AA7F#16700000A8217BC0
(1769184395.124993) can0 02807FAA#57FE800D7FBE0104
(1769184395.137249) can0 1200AA7F#16700000B4CF7AC0
(1769184395.137820) can0 02807FAA#58018037801B0104
(1769184395.161624) can0 1200AA7F#16700000B4CF7AC0
(1769184395.162172) can0 02807FAA#5807806280A50104
(1769184395.178590) can0 1200AA7F#16700000456C7AC0
(1769184395.179178) can0 02807FAA#580C8053816A0104
(1769184395.197906) can0 1200AA7F#16700000456C7AC0
(1769184395.198431) can0 02807FAA#5810806881F20104
(1769184395.222764) can0 1200AA7F#16700000A1F779C0
(1769184395.223287) can0 02807FAA#581A805480E30104
(1769184395.247049) can0 1200AA7F#16700000A1F779C0
(1769184395.247588) can0 02807FAA#58238068810B0104
(1769184395.262364) can0 1200AA7F#167000000D7279C0
(1769184395.262927) can0 02807FAA#5829806B80BB0104
(1769184395.284162) can0 1200AA7F#167000000D7279C0
(1769184395.284759) can0 02807FAA#583280A1815C0104
(1769184395.308443) can0 1200AA7F#16700000CEDB78C0
(1769184395.308979) can0 02807FAA#583E806F81480104
(1769184395.357996) can0 1200AA7F#16700000CEDB78C0
(1769184395.358691) can0 02807FAA#585780547FD80104
