(1761047764.338325) can0 1200AA01#0570000001000000
(1761047764.338802) can0 020001AA#7FFF7FAC7FFF0139
(1761047764.358695) can0 0300AA01#0000000000000000
(1761047764.358788) can0 1200AA01#16700000D8C5913C
(1761047764.359162) can0 028001AA#7FFF806E7FFF0139
(1761047764.360346) can0 028001AA#7FFF804080640139
(1761047764.376317) can0 1200AA01#16700000AA378D3D
(1761047764.376759) can0 028001AA#7FFF800D7FEA0139
(1761047764.425560) can0 1200AA01#16700000AABE193E
(1761047764.426022) can0 028001AA#8014811E82D60139
(1761047764.488126) can0 1200AA01#167000004C1B843E
(1761047764.488576) can0 028001AA#8081829181F70139
(1761047764.527041) can0 1200AA01#167000007E4CC73E
(1761047764.527503) can0 028001AA#80F0839D80000139
(1761047764.575819) can0 1200AA01#16700000CD5E0A3F
(1761047764.576323) can0 028001AA#81AC849682D30139
(1761047764.619124) can0 1200AA01#16700000A75C353F
(1761047764.619633) can0 028001AA#8279859A84060139
(1761047764.636175) can0 1200AA01#1670000022C5633F
(1761047764.636684) can0 028001AA#82D585CD80C30139
(1761047764.669397) can0 1200AA01#16700000CE5E8A3F
(1761047764.669919) can0 028001AA#839486D980EE0139
(1761047764.702428) can0 1200AA01#16700000B1B5A33F
(1761047764.702848) can0 028001AA#8469880C80540139
(1761047764.735628) can0 1200AA01#16700000EB79BD3F
(1761047764.736139) can0 028001AA#855E887F82470139
(1761047764.769043) can0 1200AA01#16700000243ED73F
(1761047764.769514) can0 028001AA#8670896580690139
(1761047764.802418) can0 1200AA01#167000000A95F03F
(1761047764.802957) can0 028001AA#879E8B45833A0139
(1761047764.835738) can0 1200AA01#16700000A2880440
(1761047764.836276) can0 028001AA#88E88B39807F0132
(1761047764.869040) can0 1200AA01#16700000C0221040
(1761047764.869571) can0 028001AA#8A4A8C5283670132
(1761047764.902391) can0 1200AA01#1670000038E21A40
(1761047764.902927) can0 028001AA#8BBE8CD87F1A0132
(1761047764.935702) can0 1200AA01#167000005B902440
(1761047764.936292) can0 028001AA#8D3A8D16807A0132
(1761047764.969010) can0 1200AA01#1670000082F62C40
(1761047764.969505) can0 028001AA#8EBD8CE180380132
(1761047765.002410) can0 1200AA01#1670000001DE3340
(1761047765.002813) can0 028001AA#90428CF981000132
(1761047765.036236) can0 1200AA01#1670000030103940
(1761047765.036698) can0 028001AA#91CB8C4A82970132
(1761047765.069094) can0 1200AA01#1670000060563C40
(1761047765.069609) can0 028001AA#933E8C6F807E0132
(1761047765.102391) can0 1200AA01#16700000EB793D40
(1761047765.102909) can0 028001AA#94B08C1882820132
(1761047765.135840) can0 1200AA01#167000002C343D40
(1761047765.136287) can0 028001AA#96128BC081F70132
(1761047765.169057) can0 1200AA01#167000003D663C40
(1761047765.169554) can0 028001AA#97588A6D7FFF0132
(1761047765.202435) can0 1200AA01#167000001E153B40
(1761047765.202967) can0 028001AA#988489A27E880132
(1761047765.235728) can0 1200AA01#16700000C9453940
(1761047765.236285) can0 028001AA#998E88AD811B0132
(1761047765.269047) can0 1200AA01#1670000037FD3640
(1761047765.269618) can0 028001AA#9A73875282520132
(1761047765.302425) can0 1200AA01#1670000065403440
(1761047765.302886) can0 028001AA#9B34854E802A0132
(1761047765.335728) can0 1200AA01#167000004F143140
(1761047765.336297) can0 028001AA#9BC2842D81220132
(1761047765.369027) can0 1200AA01#16700000EF7D2D40
(1761047765.369560) can0 028001AA#9C26827080340132
(1761047765.402420) can0 1200AA01#1670000042822940
(1761047765.402894) can0 028001AA#9C6A81D1827F0132
(1761047765.435767) can0 1200AA01#1670000042262540
(1761047765.436309) can0 028001AA#9C93803B80880132
(1761047765.469038) can0 1200AA01#16700000EA6E2040
(1761047765.469573) can0 028001AA#9C9F7FD780900132
(1761047765.502393) can0 1200AA01#1670000037611B40
(1761047765.502908) can0 028001AA#9C907FB67C550132
(1761047765.535758) can0 1200AA01#1670000022021640
(1761047765.536307) can0 028001AA#9C617D69819C0132
(1761047765.569050) can0 1200AA01#16700000A9561040
(1761047765.569638) can0 028001AA#9C127D8B7C0D0132
(1761047765.602440) can0 1200AA01#16700000C5630A40
(1761047765.602919) can0 028001AA#9BA97C7981120132
(1761047765.635726) can0 1200AA01#16700000732E0440
(1761047765.636305) can0 028001AA#9B247B0A80EC0132
(1761047765.669042) can0 1200AA01#167000005D77FB3F
(1761047765.669577) can0 028001AA#9A817A2B80010132
(1761047765.702474) can0 1200AA01#16700000E220EE3F
(1761047765.702878) can0 028001AA#99C079447F0A0132
(1761047765.735930) can0 1200AA01#167000006E63E03F
(1761047765.736300) can0 028001AA#98E278277F470132
(1761047765.769066) can0 1200AA01#16700000FA48D23F
(1761047765.769512) can0 028001AA#97EB77677F520132
(1761047765.802349) can0 1200AA01#1670000078DBC33F
(1761047765.802817) can0 028001AA#96DD771680150132
(1761047765.835719) can0 1200AA01#16700000DF24B53F
(1761047765.836295) can0 028001AA#95C7763E7EEB0132
(1761047765.869028) can0 1200AA01#167000002B2FA63F
(1761047765.869498) can0 028001AA#94AF768B7F320132
(1761047765.902371) can0 1200AA01#167000005004973F
(1761047765.902860) can0 028001AA#9393762A7FCD0132
(1761047765.935778) can0 1200AA01#1670000042AE873F
(1761047765.936301) can0 028001AA#9276767C7CC70132
(1761047765.969147) can0 1200AA01#16700000F26D703F
(1761047765.969632) can0 028001AA#915776D17E750132
(1761047766.002454) can0 1200AA01#16700000DC50513F
(1761047766.002937) can0 028001AA#9036761B7F2D0132
(1761047766.035897) can0 1200AA01#167000002C19323F
(1761047766.036373) can0 028001AA#8F12761A7D860132
(1761047766.069188) can0 1200AA01#16700000D0DA123F
(1761047766.069653) can0 028001AA#8DEB75967FAA0132
(1761047766.102601) can0 1200AA01#167000006853E73E
(1761047766.103032) can0 028001AA#8CC575BA7F570132
(1761047766.135933) can0 1200AA01#167000008833A93E
(1761047766.136420) can0 028001AA#8B9A760C7F870132
(1761047766.169248) can0 1200AA01#16700000E8FB563E
(1761047766.169800) can0 028001AA#8A6D759D7F030132
(1761047766.202578) can0 1200AA01#167000003069B93D
(1761047766.203102) can0 028001AA#894175AE7F380132
(1761047766.235883) can0 1200AA01#1670000000F5E0BC
(1761047766.236400) can0 028001AA#881175D67E380132
(1761047766.269252) can0 1200AA01#16700000702E13BE
(1761047766.269799) can0 028001AA#86E175947F620132
(1761047766.302556) can0 1200AA01#16700000681584BE
(1761047766.303142) can0 028001AA#85B076187F150132
(1761047766.335790) can0 1200AA01#167000002862BDBE
(1761047766.336381) can0 028001AA#8483758C7F860132
(1761047766.369218) can0 1200AA01#167000008855F5BE
(1761047766.369714) can0 028001AA#8352757F7D6B0132
(1761047766.402600) can0 1200AA01#16700000E0E315BF
(1761047766.403020) can0 028001AA#822375C37F310132
(1761047766.435917) can0 1200AA01#167000006C4830BF
(1761047766.436356) can0 028001AA#80F37605805C0132
(1761047766.469231) can0 1200AA01#1670000090C449BF
(1761047766.469710) can0 028001AA#7FCA75F1807E0132
(1761047766.502545) can0 1200AA01#16700000484462BF
(1761047766.503088) can0 028001AA#7EA1761A7FAC0132
(1761047766.535947) can0 1200AA01#16700000B8B379BF
(1761047766.536488) can0 028001AA#7D7A76027EDA0132
(1761047766.569313) can0 1200AA01#1670000074FF87BF
(1761047766.569862) can0 028001AA#7C58766C7EC60132
(1761047766.602523) can0 1200AA01#16700000F08892BF
(1761047766.603065) can0 028001AA#7B3B764681250132
(1761047766.635821) can0 1200AA01#167000006C6C9CBF
(1761047766.636315) can0 028001AA#7A2476D680CE0132
(1761047766.669219) can0 1200AA01#16700000EC9FA5BF
(1761047766.669772) can0 028001AA#791277857F030132
(1761047766.702475) can0 1200AA01#167000006019AEBF
(1761047766.702958) can0 028001AA#780877157DCE0132
(1761047766.735796) can0 1200AA01#16700000F4CEB5BF
(1761047766.736314) can0 028001AA#7704775D80710132
(1761047766.769246) can0 1200AA01#1670000094B6BCBF
(1761047766.769680) can0 028001AA#760977927F210132
(1761047766.802349) can0 1200AA01#1670000064C6C2BF
(1761047766.802873) can0 028001AA#751B77CA7DE60132
(1761047766.836398) can0 1200AA01#1670000054F4C7BF
(1761047766.836868) can0 028001AA#743278CB7F970132
(1761047766.869117) can0 1200AA01#167000008036CCBF
(1761047766.869601) can0 028001AA#735C79137DFC0132
(1761047766.902414) can0 1200AA01#16700000F082CFBF
(1761047766.902949) can0 028001AA#729279A27E460132
(1761047766.935673) can0 1200AA01#16700000A8CFD1BF
(1761047766.936208) can0 028001AA#71D779D783D50132
(1761047766.969349) can0 1200AA01#16700000A512D3BF
(1761047766.969863) can0 028001AA#712E7A5980F00132
(1761047767.002485) can0 1200AA01#16700000880BD4BF
(1761047767.002926) can0 028001AA#70997B1480C80132
(1761047767.035764) can0 1200AA01#167000005774D5BF
(1761047767.036349) can0 028001AA#701C7C187EEE0132
(1761047767.069073) can0 1200AA01#16700000CA3AD7BF
(1761047767.069509) can0 028001AA#6FB47CC77E560132
(1761047767.102378) can0 1200AA01#16700000844CD9BF
(1761047767.102966) can0 028001AA#6F5E7C9F7FFA0132
(1761047767.135647) can0 1200AA01#167000001297DBBF
(1761047767.136241) can0 028001AA#6F1B7DF77D690132
(1761047767.169122) can0 1200AA01#16700000F707DEBF
(1761047767.169643) can0 028001AA#6EE07EAE800C0132
(1761047767.202676) can0 1200AA01#16700000AA8CE0BF
(1761047767.203115) can0 028001AA#6EA97DDB7AB20132
(1761047767.235299) can0 1200AA01#167000009B12E3BF
(1761047767.235866) can0 028001AA#6E777CFF7FB20132
(1761047767.269304) can0 1200AA01#167000003C87E5BF
(1761047767.269821) can0 028001AA#6E437E777C170132
(1761047767.302634) can0 1200AA01#16700000FED7E7BF
(1761047767.303131) can0 028001AA#6E107EB379F50132
(1761047767.335782) can0 1200AA01#1670000059F2E9BF
(1761047767.336362) can0 028001AA#6DDF7E2E7BD90132
(1761047767.369044) can0 1200AA01#16700000D0C3EBBF
(1761047767.369561) can0 028001AA#6DAA7F317A880132
(1761047767.402439) can0 1200AA01#16700000F839EDBF
(1761047767.402985) can0 028001AA#6D7E7EBB7D900132
(1761047767.435696) can0 1200AA01#167000007142EEBF
(1761047767.436295) can0 028001AA#6D567EB77A050132
(1761047767.469123) can0 1200AA01#16700000FDCAEEBF
(1761047767.469649) can0 028001AA#6D307F5A836B0132
(1761047767.502340) can0 1200AA01#167000006FC1EEBF
(1761047767.502950) can0 028001AA#6D137EB281770132
(1761047767.536015) can0 1200AA01#16700000BA13EEBF
(1761047767.536493) can0 028001AA#6D07803F7FA50132
(1761047767.569396) can0 1200AA01#16700000FEAFECBF
(1761047767.569909) can0 028001AA#6D06801A82CD0132
(1761047767.602516) can0 1200AA01#167000007384EABF
(1761047767.602973) can0 028001AA#6D0E810E7D8D0132
(1761047767.636098) can0 1200AA01#16700000837FE7BF
(1761047767.636628) can0 028001AA#6D2280F57E5E0132
(1761047767.669069) can0 1200AA01#16700000C88FE3BF
(1761047767.669611) can0 028001AA#6D44813483F90132
(1761047767.702419) can0 1200AA01#1670000004A4DEBF
(1761047767.702964) can0 028001AA#6D73811F7DEF0132
(1761047767.735712) can0 1200AA01#1670000035ABD8BF
(1761047767.736261) can0 028001AA#6DAD81F283DD0132
(1761047767.769086) can0 1200AA01#167000001DA2D0BF
(1761047767.769568) can0 028001AA#6DF6833180850132
(1761047767.802424) can0 1200AA01#16700000A2C8C5BF
(1761047767.802894) can0 028001AA#6E49834280190132
(1761047767.835737) can0 1200AA01#167000006579B8BF
(1761047767.836357) can0 028001AA#6EAE83687F0B0132
(1761047767.869054) can0 1200AA01#16700000E117A9BF
(1761047767.869569) can0 028001AA#6F25849B81DD0132
(1761047767.902497) can0 1200AA01#16700000F80F98BF
(1761047767.902936) can0 028001AA#6FB985A981000132
(1761047767.935423) can0 1200AA01#1670000050D585BF
(1761047767.935876) can0 028001AA#706186597EA00132
(1761047767.969142) can0 1200AA01#16700000EEC465BF
(1761047767.969597) can0 028001AA#712686DF81320132
(1761047768.002589) can0 1200AA01#167000008E6F3FBF
(1761047768.003049) can0 028001AA#71FE87B581B20132
(1761047768.036146) can0 1200AA01#167000003CB419BF
(1761047768.036633) can0 028001AA#72EE8832824F0132
(1761047768.069111) can0 1200AA01#167000009C45EBBE
(1761047768.069609) can0 028001AA#73E888FF81980132
(1761047768.102360) can0 1200AA01#16700000F49BA8BE
(1761047768.102938) can0 028001AA#74F5897A813A0132
(1761047768.135767) can0 1200AA01#1670000000205BBE
(1761047768.136280) can0 028001AA#760C891781C20132
(1761047768.169057) can0 1200AA01#1670000090F9F0BD
(1761047768.169609) can0 028001AA#772D89CD80B20132
(1761047768.202322) can0 1200AA01#16700000A0AA35BD
(1761047768.202894) can0 028001AA#785089F07FD90132
(1761047768.235869) can0 1200AA01#1670000000F4083B
(1761047768.236358) can0 028001AA#797189A580D80132
(1761047768.269073) can0 1200AA01#16700000808A933C
(1761047768.269612) can0 028001AA#7A8889307FD80132
(1761047768.302624) can0 1200AA01#1670000000000000
(1761047768.303127) can0 028001AA#7B9288937FF50132
(1761047768.335931) can0 1200AA01#16700000066407BD
(1761047768.336438) can0 028001AA#7C83870A80C80132
(1761047768.369227) can0 1200AA01#1670000080DD70BD
(1761047768.369761) can0 028001AA#7D51863F7E100132
(1761047768.403087) can0 1200AA01#1670000065B798BD
(1761047768.403555) can0 028001AA#7DF984C47FCC0132
(1761047768.436211) can0 1200AA01#1670000056E99CBD
(1761047768.436797) can0 028001AA#7E7584247D0C0132
(1761047768.469382) can0 1200AA01#16700000364A7CBD
(1761047768.469889) can0 028001AA#7ECD82D2816A0132
(1761047768.502472) can0 1200AA01#1670000018F308BD
(1761047768.502945) can0 028001AA#7F0B81EB7ED70132
(1761047768.535856) can0 1200AA01#1670000060220EBC
(1761047768.536253) can0 028001AA#7F43811584900132
(1761047768.569227) can0 1200AA01#1670000000000000
(1761047768.569651) can0 028001AA#7F7881EF7F560132
(1761047768.602469) can0 1200AA01#16700000F5C0DA3B
(1761047768.602963) can0 028001AA#7FB482537D4E0132
(1761047768.635842) can0 1200AA01#16700000ADC8CB3C
(1761047768.636306) can0 028001AA#7FE280DB818A0132
(1761047768.669072) can0 1200AA01#16700000F0C2563D
(1761047768.669537) can0 028001AA#8004805787320132
(1761047768.702396) can0 1200AA01#16700000F6A3B33D
(1761047768.702831) can0 028001AA#802B81D57F600132
(1761047768.735667) can0 1200AA01#16700000728F043E
(1761047768.736200) can0 028001AA#806181CB812A0132
(1761047768.769095) can0 1200AA01#16700000BDDB343E
(1761047768.769591) can0 028001AA#809F81E683FC0132
(1761047768.802388) can0 1200AA01#1670000014D6693E
(1761047768.802878) can0 028001AA#80EE82F6801F0132
(1761047768.835706) can0 1200AA01#16700000515E913E
(1761047768.836233) can0 028001AA#81458327808C0132
(1761047768.869068) can0 1200AA01#167000004471AF3E
(1761047768.869527) can0 028001AA#81AA833781DC0132
(1761047768.902337) can0 1200AA01#16700000D3D3CE3E
(1761047768.902838) can0 028001AA#8218846E814F0132
(1761047768.935691) can0 1200AA01#16700000B038EF3E
(1761047768.936168) can0 028001AA#828F848B81440132
(1761047768.969134) can0 1200AA01#16700000C228083F
(1761047768.969654) can0 028001AA#831083F7818C0132
(1761047769.002369) can0 1200AA01#1670000052E5183F
(1761047769.002898) can0 028001AA#83988459823F0132
(1761047769.035633) can0 1200AA01#167000008CA2293F
(1761047769.036222) can0 028001AA#8425849E833C0132
(1761047769.069230) can0 1200AA01#16700000E4263A3F
(1761047769.069667) can0 028001AA#84B8850681B30132
(1761047769.102592) can0 1200AA01#1670000030274A3F
(1761047769.103090) can0 028001AA#854F850F824D0132
(1761047769.135867) can0 1200AA01#167000007D38593F
(1761047769.136264) can0 028001AA#85E884CD83410132
(1761047769.169214) can0 1200AA01#1670000058B1663F
(1761047769.169701) can0 028001AA#868584E582C30132
(1761047769.202575) can0 1200AA01#16700000545A713F
(1761047769.203065) can0 028001AA#872085BA812E0132
(1761047769.235974) can0 1200AA01#16700000CD52763F
(1761047769.236445) can0 028001AA#87BA852B813B0132
(1761047769.269285) can0 1200AA01#16700000CD52763F
(1761047769.269754) can0 028001AA#884C849082610132
(1761047769.302615) can0 1200AA01#16700000CE52763F
(1761047769.303119) can0 028001AA#88CD839484C20132
(1761047769.336024) can0 1200AA01#16700000CD52763F
(1761047769.336512) can0 028001AA#893482DC81400132
(1761047769.369003) can0 1200AA01#16700000CD52763F
(1761047769.369545) can0 028001AA#897C8163874B0132
(1761047769.402563) can0 1200AA01#16700000CD52763F
(1761047769.403077) can0 028001AA#89AC812883190132
(1761047769.435815) can0 1200AA01#16700000CD52763F
(1761047769.436353) can0 028001AA#89C38050838E0132
(1761047769.469255) can0 1200AA01#16700000CD52763F
(1761047769.469717) can0 028001AA#89C8800382D50132
(1761047769.502535) can0 1200AA01#16700000CC52763F
(1761047769.503050) can0 028001AA#89CA7FF980430132
(1761047769.535898) can0 1200AA01#16700000CD52763F
(1761047769.536272) can0 028001AA#89CC7FEC812B0132
(1761047769.569211) can0 1200AA01#16700000CD52763F
(1761047769.569670) can0 028001AA#89CD7F89801F0132
(1761047769.602614) can0 1200AA01#1670000051B47B3F
(1761047769.603074) can0 028001AA#89CD801A7FE80132
(1761047769.635883) can0 1200AA01#1670000025AE843F
(1761047769.636390) can0 028001AA#89D080BC7FDD0132
(1761047769.669237) can0 1200AA01#16700000E2618E3F
(1761047769.669761) can0 028001AA#89E280F881D60132
(1761047769.703386) can0 1200AA01#167000001F289A3F
(1761047769.703907) can0 028001AA#8A10822680350132
(1761047769.735904) can0 1200AA01#167000007072A73F
(1761047769.736474) can0 028001AA#8A59827D7F290132
(1761047769.769186) can0 1200AA01#16700000B2D6B53F
(1761047769.769650) can0 028001AA#8ABB839783520132
(1761047769.802792) can0 1200AA01#16700000B300C53F
(1761047769.803363) can0 028001AA#8B41855C81ED0132
(1761047769.835766) can0 1200AA01#16700000A9A9D43F
(1761047769.836226) can0 028001AA#8BDD859282E30132
(1761047769.869144) can0 1200AA01#167000008692E43F
(1761047769.869634) can0 028001AA#8C9A86D3813B0132
(1761047769.902383) can0 1200AA01#16700000C07FF43F
(1761047769.902918) can0 028001AA#8D7187B582E80132
(1761047769.935926) can0 1200AA01#16700000E11A0240
(1761047769.936488) can0 028001AA#8E5E8865825F0132
(1761047769.969143) can0 1200AA01#16700000A6BA0940
(1761047769.969566) can0 028001AA#8F53887481110132
(1761047770.003366) can0 1200AA01#1670000091FB1040
(1761047770.003900) can0 028001AA#905B88D5826E0132
(1761047770.035821) can0 1200AA01#1670000020B31740
(1761047770.036294) can0 028001AA#915A88FC7EC70132
(1761047770.069142) can0 1200AA01#1670000074AB1D40
(1761047770.069658) can0 028001AA#926788DB82870132
(1761047770.102609) can0 1200AA01#16700000B99B2240
(1761047770.103100) can0 028001AA#937688EE817A0132
(1761047770.135922) can0 1200AA01#16700000EC192640
(1761047770.136395) can0 028001AA#948288F181880132
(1761047770.169477) can0 1200AA01#167000006B7C2740
(1761047770.169959) can0 028001AA#958988AE7F130132
(1761047770.202359) can0 1200AA01#167000006B7C2740
(1761047770.202833) can0 028001AA#9680883580AB0132
(1761047770.235709) can0 1200AA01#167000006B7C2740
(1761047770.236225) can0 028001AA#976286FF7ECD0132
(1761047770.269190) can0 1200AA01#167000006B7C2740
(1761047770.269763) can0 028001AA#982D862983B50132
(1761047770.302467) can0 1200AA01#167000006B7C2740
(1761047770.302931) can0 028001AA#98DB859584860132
(1761047770.335877) can0 1200AA01#167000006B7C2740
(1761047770.336303) can0 028001AA#996C83F882440132
(1761047770.369253) can0 1200AA01#167000006B7C2740
(1761047770.369700) can0 028001AA#99E283327F470132
(1761047770.402604) can0 1200AA01#167000006B7C2740
(1761047770.403085) can0 028001AA#9A3982CC7A3A0132
(1761047770.435824) can0 1200AA01#16700000B1702940
(1761047770.436233) can0 028001AA#9A738144815C0132
(1761047770.469065) can0 1200AA01#1670000094CF2D40
(1761047770.469535) can0 028001AA#9A96813E86540132
(1761047770.502347) can0 1200AA01#1670000001803340
(1761047770.502850) can0 028001AA#9AC2816D7ED00132
(1761047770.535861) can0 1200AA01#16700000E7003A40
(1761047770.536284) can0 028001AA#9B05822281850132
(1761047770.569372) can0 1200AA01#167000005F084140
(1761047770.569888) can0 028001AA#9B5E840A7CB20132
(1761047770.602352) can0 1200AA01#1670000094654840
(1761047770.602872) can0 028001AA#9BD283FF825F0132
(1761047770.635637) can0 1200AA01#167000005FF44F40
(1761047770.636207) can0 028001AA#9C6384AC83440132
(1761047770.668738) can0 1200AA01#1670000015975740
(1761047770.669297) can0 028001AA#9D1085B3822B0132
(1761047770.702971) can0 1200AA01#16700000CA325F40
(1761047770.703476) can0 028001AA#9DE3875081C30132
(1761047770.735823) can0 1200AA01#167000007CAC6640
(1761047770.736286) can0 028001AA#9EC087887F5F0132
(1761047770.769149) can0 1200AA01#1670000064E66D40
(1761047770.769626) can0 028001AA#9FAE885880E80132
(1761047770.802096) can0 1200AA01#167000003BBC7440
(1761047770.802661) can0 028001AA#A0A488447F880132
(1761047770.836102) can0 1200AA01#167000007EFD7A40
(1761047770.836640) can0 028001AA#A1A5884984910132
(1761047770.869172) can0 1200AA01#1670000014318040
(1761047770.869705) can0 028001AA#A2A588DA80AC0132
(1761047770.902363) can0 1200AA01#1670000070388240
(1761047770.902934) can0 028001AA#A3A488B582020132
(1761047770.935737) can0 1200AA01#167000007D198340
(1761047770.936238) can0 028001AA#A4A4882182290132
(1761047770.969068) can0 1200AA01#167000007D198340
(1761047770.969603) can0 028001AA#A59B883A80280132
(1761047771.002482) can0 1200AA01#167000007D198340
(1761047771.003002) can0 028001AA#A67D8739812F0132
(1761047771.035805) can0 1200AA01#167000007D198340
(1761047771.036174) can0 028001AA#A74686727F160132
(1761047771.069102) can0 1200AA01#167000007D198340
(1761047771.069663) can0 028001AA#A7F485017FFE0132
(1761047771.102421) can0 1200AA01#167000007D198340
(1761047771.102947) can0 028001AA#A885848D7E760132
(1761047771.135752) can0 1200AA01#167000007D198340
(1761047771.136327) can0 028001AA#A8F984017D300132
(1761047771.169124) can0 1200AA01#167000007D198340
(1761047771.169656) can0 028001AA#A94C81D986620132
(1761047771.202452) can0 1200AA01#167000007D198340
(1761047771.202943) can0 028001AA#A98880C47FB00132
(1761047771.235782) can0 1200AA01#16700000EAF98240
(1761047771.236196) can0 028001AA#A9A780737E770132
(1761047771.269074) can0 1200AA01#16700000539A8240
(1761047771.269595) can0 028001AA#A9AE80327FE80132
(1761047771.302409) can0 1200AA01#1670000082F98140
(1761047771.302940) can0 028001AA#A9A97F42857C0132
(1761047771.335763) can0 1200AA01#167000004D168140
(1761047771.336290) can0 028001AA#A9967EF17A690132
(1761047771.369016) can0 1200AA01#167000005BDF7F40
(1761047771.369581) can0 028001AA#A9727EC37BDC0132
(1761047771.402407) can0 1200AA01#1670000079097D40
(1761047771.402966) can0 028001AA#A93D7E5C7FEB0132
(1761047771.435766) can0 1200AA01#167000007CA97940
(1761047771.436207) can0 028001AA#A8FC7D707EB70132
(1761047771.469000) can0 1200AA01#167000005DBE7540
(1761047771.469546) can0 028001AA#A8AF7C727F1E0132
(1761047771.502477) can0 1200AA01#167000008F477140
(1761047771.502943) can0 028001AA#A8527C577B5E0132
(1761047771.535863) can0 1200AA01#1670000020456C40
(1761047771.536345) can0 028001AA#A7E47C3A7E270132
(1761047771.569228) can0 1200AA01#16700000CBB76640
(1761047771.569799) can0 028001AA#A7697BC580790132
(1761047771.602395) can0 1200AA01#1670000023A16040
(1761047771.602950) can0 028001AA#A6E27B2A80D50132
(1761047771.635781) can0 1200AA01#167000009D035A40
(1761047771.636275) can0 028001AA#A64A7AA780A10132
(1761047771.669136) can0 1200AA01#16700000CBE25240
(1761047771.669673) can0 028001AA#A5A27A3A80760132
(1761047771.702362) can0 1200AA01#1670000062434B40
(1761047771.702914) can0 028001AA#A4EB79EB7E6D0132
(1761047771.735701) can0 1200AA01#16700000722B4340
(1761047771.736172) can0 028001AA#A42979E27E040132
(1761047771.769191) can0 1200AA01#1670000073A23A40
(1761047771.769722) can0 028001AA#A355786381880132
(1761047771.802625) can0 1200AA01#1670000071B13140
(1761047771.803165) can0 028001AA#A27578577CF40132
(1761047771.835921) can0 1200AA01#1670000010632840
(1761047771.836484) can0 028001AA#A18977D07FDA0132
(1761047771.869295) can0 1200AA01#16700000B4C31E40
(1761047771.869838) can0 028001AA#A08D77777DEF0132
(1761047771.902544) can0 1200AA01#1670000069E11440
(1761047771.903064) can0 028001AA#9F8476B07FD40132
(1761047771.935885) can0 1200AA01#16700000EFCB0A40
(1761047771.936437) can0 028001AA#9E6F76317F290132
(1761047771.969127) can0 1200AA01#1670000099940040
(1761047771.969620) can0 028001AA#9D4F761880950132
(1761047772.002308) can0 1200AA01#167000005C9CEC3F
(1761047772.002860) can0 028001AA#9C257588804E0132
(1761047772.035833) can0 1200AA01#167000004B19D83F
(1761047772.036343) can0 028001AA#9AED74BE80670132
(1761047772.068992) can0 1200AA01#16700000DCC9C33F
(1761047772.069516) can0 028001AA#99AE751C7E570132
(1761047772.102424) can0 1200AA01#1670000023D9AF3F
(1761047772.102912) can0 028001AA#986475247E570132
(1761047772.135629) can0 1200AA01#16700000A2729C3F
(1761047772.136181) can0 028001AA#971574867E390132
(1761047772.169415) can0 1200AA01#1670000088C1893F
(1761047772.169934) can0 028001AA#95BA74537FE60132
(1761047772.202521) can0 1200AA01#16700000A8DF6F3F
(1761047772.203081) can0 028001AA#9461744E7EF00132
(1761047772.235730) can0 1200AA01#16700000584B4E3F
(1761047772.236221) can0 028001AA#930474987DF10132
(1761047772.269104) can0 1200AA01#16700000E0102F3F
(1761047772.269601) can0 028001AA#91A2744D7F6C0132
(1761047772.302360) can0 1200AA01#16700000A474123F
(1761047772.302828) can0 028001AA#904473FF7F6B0132
(1761047772.335773) can0 1200AA01#167000001067F13E
(1761047772.336216) can0 028001AA#8EE5744E7D2D0132
(1761047772.369031) can0 1200AA01#16700000C004C43E
(1761047772.369570) can0 028001AA#8D8A749582320132
(1761047772.402446) can0 1200AA01#16700000D01A9D3E
(1761047772.402871) can0 028001AA#8C3674DB7FC50132
(1761047772.435737) can0 1200AA01#1670000060E1793E
(1761047772.436252) can0 028001AA#8AEB75207F540132
(1761047772.469107) can0 1200AA01#16700000E07A473E
(1761047772.469595) can0 028001AA#89A875B47DD20132
(1761047772.502418) can0 1200AA01#16700000004F233E
(1761047772.502872) can0 028001AA#8875762C7CF20132
(1761047772.535699) can0 1200AA01#16700000808E0D3E
(1761047772.536228) can0 028001AA#8753766D7ECB0132
(1761047772.569213) can0 1200AA01#16700000C34D063E
(1761047772.569685) can0 028001AA#863F770D7E590132
