(1760455578.591765) can0 1200AA7F#0570000001000000
(1760455578.592294) can0 02007FAA#A0667FEA7FFF0103
(1760455578.592596) can0 0300AA7F#0000000000000000
(1760455578.593140) can0 02807FAA#A0657FEA7FFF0103
(1760455578.593388) can0 1200AA7F#1670000026CDC140
(1760455578.594152) can0 02807FAA#A0667FC87F650103
(1760455579.094725) can0 1100AA7F#1970000000000000
(1760455579.095243) can0 11007FAA#197000003BF88840
(1760455579.095727) can0 1200AA7F#1670000026CDC140
(1760455579.096266) can0 02807FAA#ABA18DD583350103
(1760455579.596841) can0 1100AA7F#1970000000000000
(1760455579.597378) can0 11007FAA#1970000090F2BF40
(1760455579.598054) can0 1200AA7F#167000004973BE40
(1760455579.598433) can0 02807FAA#BD1782EA7F090103
(1760455580.099480) can0 1100AA7F#1970000000000000
(1760455580.100008) can0 11007FAA#197000008C77BE40
(1760455580.100614) can0 1200AA7F#167000000A2BDD3F
(1760455580.101153) can0 02807FAA#BC9A7F2E830E0103
(1760455580.601972) can0 1100AA7F#1970000000000000
(1760455580.602487) can0 11007FAA#197000005A3D9B40
(1760455580.603107) can0 1200AA7F#167000000A2BDD3F
(1760455580.603647) can0 02807FAA#B157725C7D130103
(1760455581.104513) can0 1100AA7F#1970000000000000
(1760455581.105020) can0 11007FAA#197000006C951140
(1760455581.105636) can0 1200AA7F#167000000A2BDD3F
(1760455581.106149) can0 02807FAA#971F76BF7EDE0103
(1760455581.606960) can0 1100AA7F#1970000000000000
(1760455581.607502) can0 11007FAA#197000006C1DDD3F
(1760455581.608140) can0 1200AA7F#16700000F2D346C0
(1760455581.608666) can0 02807FAA#91978056832D0103
(1760455582.109367) can0 1100AA7F#1970000000000000
(1760455582.109894) can0 11007FAA#19700000D6C0203F
(1760455582.110535) can0 1200AA7F#16700000F2D346C0
(1760455582.111096) can0 02807FAA#865572887F720103
(1760455582.612139) can0 1100AA7F#1970000000000000
(1760455582.612700) can0 11007FAA#19700000AB1D0EC0
(1760455582.613343) can0 1200AA7F#16700000F2D346C0
(1760455582.613853) can0 02807FAA#695573F07E500103
(1760455583.114605) can0 1100AA7F#1970000000000000
(1760455583.115032) can0 11007FAA#1970000081C646C0
(1760455583.115610) can0 1200AA7F#16700000AD1AE6BF
(1760455583.116160) can0 02807FAA#605E7F6081140103
(1760455583.616967) can0 1100AA7F#1970000000000000
(1760455583.617394) can0 11007FAA#19700000BB4A08C0
(1760455583.617952) can0 1200AA7F#16700000AD1AE6BF
(1760455583.618510) can0 02807FAA#6A5787A57FA80103
(1760455584.119313) can0 1100AA7F#1970000000000000
(1760455584.119743) can0 11007FAA#197000005C2FE6BF
(1760455584.120322) can0 1200AA7F#16700000160D5CC0
(1760455584.120855) can0 02807FAA#6DAF7FB0803C0103
(1760455584.621543) can0 1100AA7F#1970000000000000
(1760455584.621980) can0 11007FAA#197000004F5036C0
(1760455584.622350) can0 1200AA7F#16700000160D5CC0
(1760455584.622893) can0 02807FAA#62F575C57EBB0103
(1760455585.123558) can0 1100AA7F#1970000000000000
(1760455585.124025) can0 11007FAA#19700000AA015CC0
(1760455585.124651) can0 1200AA7F#167000007CD9A03E
(1760455585.125124) can0 02807FAA#5CFE7FFD79C60103
(1760455585.625949) can0 1100AA7F#1970000000000000
(1760455585.626347) can0 11007FAA#19700000A6A915C0
(1760455585.626937) can0 1200AA7F#167000007CD9A03E
(1760455585.627510) can0 02807FAA#683D8DB980A00103
(1760455590.667382) can0 1200AA7F#0570000001000000
(1760455590.667908) can0 02807FAA#8332809C7ECC0103
(1760455590.668167) can0 0400AA7F#0000000000000000
(1760455590.668689) can0 02007FAA#833280407BC30103
(1760455590.668947) can0 1100AA7F#1970000000000000
(1760455590.693860) can0 11007FAA#197000004BD4A03E
(1760455590.694215) can0 1100AA7F#1970000000000000
(1760455590.694759) can0 11007FAA#1970000059BAA03E
(1760455590.694981) can0 1100AA7F#1970000000000000
(1760455590.695553) can0 11007FAA#197000003DEEA03E
(1760455590.695790) can0 1100AA7F#1970000000000000
(1760455590.696328) can0 11007FAA#1970000044E1A03E
(1760455590.696599) can0 1100AA7F#1970000000000000
(1760455590.697116) can0 11007FAA#1970000044E1A03E
(1760455590.697364) can0 1100AA7F#1970000000000000
(1760455590.697802) can0 11007FAA#19700000C1E7A03E
(1760455590.698152) can0 1100AA7F#1970000000000000
(1760455590.698668) can0 11007FAA#19700000C1E7A03E
(1760455590.698901) can0 1100AA7F#1970000000000000
(1760455590.699387) can0 11007FAA#19700000CFCDA03E
(1760455590.699611) can0 1100AA7F#1970000000000000
(1760455590.700094) can0 11007FAA#19700000C1E7A03E
(1760455590.700317) can0 1100AA7F#1970000000000000
(1760455590.700845) can0 11007FAA#19700000CFCDA03E
(1760455590.701082) can0 1100AA7F#1970000000000000
(1760455590.701573) can0 11007FAA#19700000CFCDA03E
(1760455590.701801) can0 1100AA7F#1970000000000000
(1760455590.702323) can0 11007FAA#19700000C1E7A03E
(1760455590.702557) can0 1100AA7F#1970000000000000
(1760455590.703075) can0 11007FAA#197000004BD4A03E
(1760455590.703310) can0 1100AA7F#1970000000000000
(1760455590.703842) can0 11007FAA#19700000D6C0A03E
(1760455590.704091) can0 1100AA7F#1970000000000000
(1760455590.704588) can0 11007FAA#1970000044E1A03E
(1760455590.704845) can0 1100AA7F#1970000000000000
(1760455590.705369) can0 11007FAA#19700000C8DAA03E
(1760455590.705636) can0 1100AA7F#1970000000000000
(1760455590.706150) can0 11007FAA#19700000C1E7A03E
(1760455590.706447) can0 1100AA7F#1970000000000000
(1760455590.706964) can0 11007FAA#1970000052C7A03E
(1760455590.707256) can0 1100AA7F#1970000000000000
(1760455590.707762) can0 11007FAA#19700000C8DAA03E
(1760455590.708053) can0 1100AA7F#1970000000000000
(1760455590.708546) can0 11007FAA#19700000C8DAA03E
(1760455590.708837) can0 1100AA7F#1970000000000000
(1760455590.709339) can0 11007FAA#1970000044E1A03E
(1760455590.709630) can0 1100AA7F#1970000000000000
(1760455590.710116) can0 11007FAA#1970000044E1A03E
(1760455590.710401) can0 1100AA7F#1970000000000000
(1760455590.710888) can0 11007FAA#19700000C8DAA03E
(1760455590.711178) can0 1100AA7F#1970000000000000
(1760455590.711693) can0 11007FAA#19700000CFCDA03E
(1760455590.711983) can0 1100AA7F#1970000000000000
(1760455590.712469) can0 11007FAA#19700000CFCDA03E
(1760455590.712778) can0 1100AA7F#1970000000000000
(1760455590.713285) can0 11007FAA#19700000C8DAA03E
(1760455590.713580) can0 1100AA7F#1970000000000000
(1760455590.714089) can0 11007FAA#1970000044E1A03E
(1760455590.714381) can0 1100AA7F#1970000000000000
(1760455590.714910) can0 11007FAA#19700000C8DAA03E
(1760455590.715194) can0 1100AA7F#1970000000000000
(1760455590.715703) can0 11007FAA#19700000C8DAA03E
(1760455590.715983) can0 1100AA7F#1970000000000000
(1760455590.716473) can0 11007FAA#19700000C8DAA03E
(1760455590.716792) can0 1100AA7F#1970000000000000
(1760455590.717297) can0 11007FAA#19700000C8DAA03E
(1760455590.717580) can0 1100AA7F#1970000000000000
(1760455590.718089) can0 11007FAA#19700000C1E7A03E
(1760455590.718380) can0 1100AA7F#1970000000000000
(1760455590.718889) can0 11007FAA#19700000C8DAA03E
(1760455590.719185) can0 1100AA7F#1970000000000000
(1760455590.719704) can0 11007FAA#19700000C1E7A03E
(1760455590.719989) can0 1100AA7F#1970000000000000
(1760455590.720547) can0 11007FAA#19700000C8DAA03E
(1760455590.720838) can0 1100AA7F#1970000000000000
(1760455590.721339) can0 11007FAA#197000004BD4A03E
(1760455590.721608) can0 1100AA7F#1970000000000000
(1760455590.722135) can0 11007FAA#1970000059BAA03E
(1760455590.722426) can0 1100AA7F#1970000000000000
(1760455590.722934) can0 11007FAA#1970000044E1A03E
(1760455590.723218) can0 1100AA7F#1970000000000000
(1760455590.723755) can0 11007FAA#19700000C1E7A03E
(1760455590.724038) can0 1100AA7F#1970000000000000
(1760455590.724547) can0 11007FAA#19700000C8DAA03E
(1760455590.724840) can0 1100AA7F#1970000000000000
(1760455590.725338) can0 11007FAA#19700000C8DAA03E
(1760455590.725540) can0 1100AA7F#1970000000000000
(1760455590.726074) can0 11007FAA#19700000C8DAA03E
(1760455590.726206) can0 1100AA7F#1970000000000000
(1760455590.726716) can0 11007FAA#1970000052C7A03E
(1760455590.726849) can0 1100AA7F#1970000000000000
(1760455590.727380) can0 11007FAA#1970000044E1A03E
(1760455590.727548) can0 1100AA7F#1970000000000000
(1760455590.728065) can0 11007FAA#197000004BD4A03E
(1760455590.728181) can0 1100AA7F#1970000000000000
(1760455590.728677) can0 11007FAA#19700000C8DAA03E
(1760455590.728808) can0 1100AA7F#1970000000000000
(1760455590.729297) can0 11007FAA#1970000044E1A03E
(1760455590.729545) can0 1100AA7F#1970000000000000
(1760455590.730073) can0 11007FAA#1970000044E1A03E
(1760455590.730272) can0 1100AA7F#1970000000000000
(1760455590.730801) can0 11007FAA#19700000C8DAA03E
(1760455590.730985) can0 1100AA7F#1970000000000000
(1760455590.731551) can0 11007FAA#19700000C8DAA03E
(1760455590.731729) can0 1100AA7F#1970000000000000
(1760455590.732259) can0 11007FAA#197000004BD4A03E
(1760455590.732459) can0 1100AA7F#1970000000000000
(1760455590.732990) can0 11007FAA#1970000044E1A03E
(1760455590.733249) can0 1100AA7F#1970000000000000
(1760455590.733759) can0 11007FAA#197000004BD4A03E
(1760455590.733985) can0 1100AA7F#1970000000000000
(1760455590.734536) can0 11007FAA#19700000C8DAA03E
(1760455590.734708) can0 1100AA7F#1970000000000000
(1760455590.735238) can0 11007FAA#19700000C8DAA03E
(1760455590.735398) can0 1100AA7F#1970000000000000
(1760455590.735885) can0 11007FAA#19700000C1E7A03E
(1760455590.736038) can0 1100AA7F#1970000000000000
(1760455590.736551) can0 11007FAA#1970000044E1A03E
(1760455590.736700) can0 1100AA7F#1970000000000000
(1760455590.737233) can0 11007FAA#1970000044E1A03E
(1760455590.737378) can0 1100AA7F#1970000000000000
(1760455590.737892) can0 11007FAA#19700000CFCDA03E
(1760455590.738050) can0 1100AA7F#1970000000000000
(1760455590.738581) can0 11007FAA#19700000C8DAA03E
(1760455590.738734) can0 1100AA7F#1970000000000000
(1760455590.739223) can0 11007FAA#197000004BD4A03E
(1760455590.739378) can0 1100AA7F#1970000000000000
(1760455590.739888) can0 11007FAA#19700000DEB3A03E
(1760455590.740051) can0 1100AA7F#1970000000000000
(1760455590.740590) can0 11007FAA#197000004BD4A03E
(1760455590.740801) can0 1100AA7F#1970000000000000
(1760455590.741284) can0 11007FAA#197000003DEEA03E
(1760455590.741466) can0 1100AA7F#1970000000000000
(1760455590.741991) can0 11007FAA#197000004BD4A03E
(1760455590.742165) can0 1100AA7F#1970000000000000
(1760455590.742676) can0 11007FAA#19700000CFCDA03E
(1760455590.742834) can0 1100AA7F#1970000000000000
(1760455590.743359) can0 11007FAA#197000004BD4A03E
(1760455590.743548) can0 1100AA7F#1970000000000000
(1760455590.744081) can0 11007FAA#19700000CFCDA03E
(1760455590.744241) can0 1100AA7F#1970000000000000
(1760455590.744723) can0 11007FAA#19700000C8DAA03E
(1760455590.744881) can0 1100AA7F#1970000000000000
(1760455590.745413) can0 11007FAA#19700000C1E7A03E
(1760455590.745577) can0 1100AA7F#1970000000000000
(1760455590.746098) can0 11007FAA#197000004BD4A03E
(1760455590.746255) can0 1100AA7F#1970000000000000
(1760455590.746762) can0 11007FAA#1970000044E1A03E
(1760455590.746926) can0 1100AA7F#1970000000000000
(1760455590.747448) can0 11007FAA#19700000CFCDA03E
(1760455590.747607) can0 1100AA7F#1970000000000000
(1760455590.748094) can0 11007FAA#1970000052C7A03E
(1760455590.748254) can0 1100AA7F#1970000000000000
(1760455590.748762) can0 11007FAA#197000004BD4A03E
(1760455590.748925) can0 1100AA7F#1970000000000000
(1760455590.749414) can0 11007FAA#1970000052C7A03E
(1760455590.749593) can0 1100AA7F#1970000000000000
(1760455590.750059) can0 11007FAA#19700000C1E7A03E
(1760455590.750219) can0 1100AA7F#1970000000000000
(1760455590.750723) can0 11007FAA#19700000C8DAA03E
(1760455590.750882) can0 1100AA7F#1970000000000000
(1760455590.751370) can0 11007FAA#197000004BD4A03E
(1760455590.751548) can0 1100AA7F#1970000000000000
(1760455590.752036) can0 11007FAA#19700000C8DAA03E
(1760455590.752195) can0 1100AA7F#1970000000000000
(1760455590.752724) can0 11007FAA#19700000C8DAA03E
(1760455590.752884) can0 1100AA7F#1970000000000000
(1760455590.753369) can0 11007FAA#19700000C8DAA03E
(1760455590.753549) can0 1100AA7F#1970000000000000
(1760455590.754034) can0 11007FAA#19700000D6C0A03E
(1760455590.754193) can0 1100AA7F#1970000000000000
(1760455590.754723) can0 11007FAA#1970000052C7A03E
(1760455590.754891) can0 1100AA7F#1970000000000000
(1760455590.755409) can0 11007FAA#19700000C1E7A03E
(1760455590.755574) can0 1100AA7F#1970000000000000
(1760455590.756055) can0 11007FAA#19700000C8DAA03E
(1760455590.756217) can0 1100AA7F#1970000000000000
(1760455590.756723) can0 11007FAA#197000004BD4A03E
(1760455590.756884) can0 1100AA7F#1970000000000000
(1760455590.757370) can0 11007FAA#197000004BD4A03E
(1760455590.757551) can0 1100AA7F#1970000000000000
(1760455590.758039) can0 11007FAA#19700000C8DAA03E
(1760455590.758219) can0 1100AA7F#1970000000000000
(1760455590.758727) can0 11007FAA#197000004BD4A03E
(1760455590.758905) can0 1100AA7F#1970000000000000
(1760455590.759395) can0 11007FAA#197000004BD4A03E
(1760455590.759635) can0 1100AA7F#1970000000000000
(1760455590.760062) can0 11007FAA#19700000C8DAA03E
(1760455590.760241) can0 1100AA7F#1970000000000000
(1760455590.760763) can0 11007FAA#197000004BD4A03E
(1760455590.760925) can0 1100AA7F#1970000000000000
(1760455590.761449) can0 11007FAA#19700000CFCDA03E
(1760455590.761609) can0 1100AA7F#1970000000000000
(1760455590.762130) can0 11007FAA#197000004BD4A03E
(1760455590.762289) can0 1100AA7F#1970000000000000
(1760455590.762819) can0 11007FAA#1970000044E1A03E
(1760455590.762984) can0 1100AA7F#1970000000000000
(1760455590.763466) can0 11007FAA#19700000B9F4A03E
(1760455590.763632) can0 1100AA7F#1970000000000000
(1760455590.764142) can0 11007FAA#1970000052C7A03E
(1760455590.764301) can0 1100AA7F#1970000000000000
(1760455590.764810) can0 11007FAA#197000004BD4A03E
(1760455590.764968) can0 1100AA7F#1970000000000000
(1760455590.765453) can0 11007FAA#19700000D6C0A03E
(1760455590.765611) can0 1100AA7F#1970000000000000
(1760455590.766141) can0 11007FAA#19700000C8DAA03E
(1760455590.766304) can0 1100AA7F#1970000000000000
(1760455590.766809) can0 11007FAA#19700000C8DAA03E
(1760455590.766969) can0 1100AA7F#1970000000000000
(1760455590.767448) can0 11007FAA#19700000C8DAA03E
(1760455590.767608) can0 1100AA7F#1970000000000000
(1760455590.768095) can0 11007FAA#197000004BD4A03E
(1760455590.768256) can0 1100AA7F#1970000000000000
(1760455590.768759) can0 11007FAA#197000003DEEA03E
(1760455590.768925) can0 1100AA7F#1970000000000000
(1760455590.769413) can0 11007FAA#19700000CFCDA03E
(1760455590.769577) can0 1100AA7F#1970000000000000
(1760455590.770108) can0 11007FAA#19700000C8DAA03E
(1760455590.770266) can0 1100AA7F#1970000000000000
(1760455590.770768) can0 11007FAA#19700000C8DAA03E
(1760455590.770927) can0 1100AA7F#1970000000000000
(1760455590.771414) can0 11007FAA#1970000044E1A03E
(1760455590.771592) can0 1100AA7F#1970000000000000
(1760455590.772098) can0 11007FAA#197000003DEEA03E
(1760455590.772259) can0 1100AA7F#1970000000000000
(1760455590.772766) can0 11007FAA#197000004BD4A03E
(1760455590.772928) can0 1100AA7F#1970000000000000
(1760455590.773413) can0 11007FAA#197000003DEEA03E
(1760455590.773577) can0 1100AA7F#1970000000000000
(1760455590.774109) can0 11007FAA#19700000CFCDA03E
(1760455590.774268) can0 1100AA7F#1970000000000000
(1760455590.774766) can0 11007FAA#19700000C8DAA03E
(1760455590.774930) can0 1100AA7F#1970000000000000
(1760455590.775449) can0 11007FAA#1970000052C7A03E
(1760455590.775606) can0 1100AA7F#1970000000000000
(1760455590.776130) can0 11007FAA#197000004BD4A03E
(1760455590.776292) can0 1100AA7F#1970000000000000
(1760455590.776810) can0 11007FAA#19700000C8DAA03E
(1760455590.776969) can0 1100AA7F#1970000000000000
(1760455590.777538) can0 11007FAA#197000004BD4A03E
(1760455590.777711) can0 1100AA7F#1970000000000000
(1760455590.778241) can0 11007FAA#19700000C8DAA03E
(1760455590.778408) can0 1100AA7F#1970000000000000
(1760455590.778906) can0 11007FAA#19700000C1E7A03E
(1760455590.779070) can0 1100AA7F#1970000000000000
(1760455590.779538) can0 11007FAA#19700000C8DAA03E
(1760455590.779707) can0 1100AA7F#1970000000000000
(1760455590.780199) can0 11007FAA#197000004BD4A03E
(1760455590.780359) can0 1100AA7F#1970000000000000
(1760455590.780897) can0 11007FAA#1970000044E1A03E
(1760455590.781051) can0 1100AA7F#1970000000000000
(1760455590.781539) can0 11007FAA#1970000044E1A03E
(1760455590.781705) can0 1100AA7F#1970000000000000
(1760455590.782199) can0 11007FAA#197000004BD4A03E
(1760455590.782358) can0 1100AA7F#1970000000000000
(1760455590.782889) can0 11007FAA#19700000C8DAA03E
(1760455590.783052) can0 1100AA7F#1970000000000000
(1760455590.783552) can0 11007FAA#19700000CFCDA03E
(1760455590.783717) can0 1100AA7F#1970000000000000
(1760455590.784207) can0 11007FAA#19700000C1E7A03E
(1760455590.784366) can0 1100AA7F#1970000000000000
(1760455590.784892) can0 11007FAA#19700000C8DAA03E
(1760455590.785053) can0 1100AA7F#1970000000000000
(1760455590.785582) can0 11007FAA#19700000CFCDA03E
(1760455590.785741) can0 1100AA7F#1970000000000000
(1760455590.786223) can0 11007FAA#197000004BD4A03E
(1760455590.786381) can0 1100AA7F#1970000000000000
(1760455590.786888) can0 11007FAA#197000004BD4A03E
(1760455590.787051) can0 1100AA7F#1970000000000000
(1760455590.787586) can0 11007FAA#19700000D6C0A03E
(1760455590.787761) can0 1100AA7F#1970000000000000
(1760455590.788289) can0 11007FAA#1970000044E1A03E
(1760455590.788448) can0 1100AA7F#1970000000000000
(1760455590.788974) can0 11007FAA#197000004BD4A03E
(1760455590.789133) can0 1100AA7F#1970000000000000
(1760455590.789642) can0 11007FAA#197000003DEEA03E
(1760455590.789803) can0 1100AA7F#1970000000000000
(1760455590.790324) can0 11007FAA#1970000052C7A03E
(1760455590.790551) can0 1100AA7F#1970000000000000
(1760455590.791074) can0 11007FAA#19700000CFCDA03E
(1760455590.791257) can0 1100AA7F#1970000000000000
(1760455590.791759) can0 11007FAA#1970000044E1A03E
(1760455590.791928) can0 1100AA7F#1970000000000000
(1760455590.792461) can0 11007FAA#19700000CFCDA03E
(1760455590.793067) can0 1100AA7F#1970000000000000
(1760455590.793584) can0 11007FAA#19700000C8DAA03E
(1760455590.794058) can0 1100AA7F#1970000000000000
(1760455590.794548) can0 11007FAA#19700000C8DAA03E
(1760455590.794988) can0 1100AA7F#1970000000000000
(1760455590.795547) can0 11007FAA#19700000C8DAA03E
(1760455590.795992) can0 1100AA7F#1970000000000000
(1760455590.796555) can0 11007FAA#1970000044E1A03E
(1760455590.797003) can0 1100AA7F#1970000000000000
(1760455590.797547) can0 11007FAA#1970000044E1A03E
(1760455590.797993) can0 1100AA7F#1970000000000000
(1760455590.798555) can0 11007FAA#197000003DEEA03E
(1760455590.799017) can0 1100AA7F#1970000000000000
(1760455590.799552) can0 11007FAA#197000004BD4A03E
(1760455590.800010) can0 1100AA7F#1970000000000000
(1760455590.800548) can0 11007FAA#19700000C8DAA03E
(1760455590.801015) can0 1100AA7F#1970000000000000
(1760455590.801555) can0 11007FAA#19700000C1E7A03E
(1760455590.802007) can0 1100AA7F#1970000000000000
(1760455590.802547) can0 11007FAA#197000004BD4A03E
(1760455590.803005) can0 1100AA7F#1970000000000000
(1760455590.803555) can0 11007FAA#197000004BD4A03E
(1760455590.804007) can0 1100AA7F#1970000000000000
(1760455590.804547) can0 11007FAA#19700000CFCDA03E
(1760455590.805029) can0 1100AA7F#1970000000000000
(1760455590.805556) can0 11007FAA#1970000052C7A03E
(1760455590.806026) can0 1100AA7F#1970000000000000
(1760455590.806556) can0 11007FAA#197000004BD4A03E
(1760455590.807026) can0 1100AA7F#1970000000000000
(1760455590.807556) can0 11007FAA#1970000052C7A03E
(1760455590.808039) can0 1100AA7F#1970000000000000
(1760455590.808552) can0 11007FAA#19700000C8DAA03E
(1760455590.809016) can0 1100AA7F#1970000000000000
(1760455590.809548) can0 11007FAA#19700000B9F4A03E
(1760455590.810005) can0 1100AA7F#1970000000000000
(1760455590.810555) can0 11007FAA#197000004BD4A03E
(1760455590.811009) can0 1100AA7F#1970000000000000
(1760455590.811548) can0 11007FAA#1970000044E1A03E
(1760455590.812008) can0 1100AA7F#1970000000000000
(1760455590.812548) can0 11007FAA#197000003DEEA03E
(1760455590.813004) can0 1100AA7F#1970000000000000
(1760455590.813558) can0 11007FAA#19700000C8DAA03E
(1760455590.814010) can0 1100AA7F#1970000000000000
(1760455590.814547) can0 11007FAA#197000004BD4A03E
(1760455590.815004) can0 1100AA7F#1970000000000000
(1760455590.815558) can0 11007FAA#19700000C8DAA03E
(1760455590.816113) can0 1100AA7F#1970000000000000
(1760455590.816634) can0 11007FAA#1970000052C7A03E
(1760455590.817060) can0 1100AA7F#1970000000000000
(1760455590.817558) can0 11007FAA#19700000C8DAA03E
(1760455590.817996) can0 1100AA7F#1970000000000000
(1760455590.818551) can0 11007FAA#19700000C8DAA03E
(1760455590.818974) can0 1100AA7F#1970000000000000
(1760455590.819483) can0 11007FAA#197000004BD4A03E
(1760455590.819927) can0 1100AA7F#1970000000000000
(1760455590.820426) can0 11007FAA#19700000C1E7A03E
(1760455590.820902) can0 1100AA7F#1970000000000000
(1760455590.821423) can0 11007FAA#19700000CFCDA03E
(1760455590.821882) can0 1100AA7F#1970000000000000
(1760455590.822401) can0 11007FAA#19700000CFCDA03E
(1760455590.822858) can0 1100AA7F#1970000000000000
(1760455590.823345) can0 11007FAA#19700000CFCDA03E
(1760455590.823792) can0 1100AA7F#1970000000000000
(1760455590.824298) can0 11007FAA#197000004BD4A03E
(1760455590.824808) can0 1100AA7F#1970000000000000
(1760455590.825320) can0 11007FAA#1970000052C7A03E
(1760455590.825701) can0 1100AA7F#1970000000000000
(1760455590.826201) can0 11007FAA#1970000044E1A03E
(1760455590.826450) can0 1100AA7F#1970000000000000
(1760455590.826976) can0 11007FAA#19700000CFCDA03E
(1760455590.827179) can0 1100AA7F#1970000000000000
(1760455590.827665) can0 11007FAA#197000003DEEA03E
(1760455590.827847) can0 1100AA7F#1970000000000000
(1760455590.828370) can0 11007FAA#19700000C1E7A03E
(1760455590.828542) can0 1100AA7F#1970000000000000
(1760455590.829076) can0 11007FAA#19700000C1E7A03E
(1760455590.829248) can0 1100AA7F#1970000000000000
(1760455590.829761) can0 11007FAA#19700000C8DAA03E
(1760455590.829929) can0 1100AA7F#1970000000000000
(1760455590.830416) can0 11007FAA#197000004BD4A03E
(1760455590.830610) can0 1100AA7F#1970000000000000
(1760455590.831097) can0 11007FAA#19700000C8DAA03E
(1760455590.831302) can0 1100AA7F#1970000000000000
(1760455590.831813) can0 11007FAA#197000004BD4A03E
(1760455590.831995) can0 1100AA7F#1970000000000000
(1760455590.832558) can0 11007FAA#19700000C8DAA03E
(1760455590.832741) can0 1100AA7F#1970000000000000
(1760455590.833226) can0 11007FAA#1970000052C7A03E
(1760455590.833388) can0 1100AA7F#1970000000000000
(1760455590.833894) can0 11007FAA#197000003DEEA03E
(1760455590.834058) can0 1100AA7F#1970000000000000
(1760455590.834597) can0 11007FAA#19700000CFCDA03E
(1760455590.834762) can0 1100AA7F#1970000000000000
(1760455590.835283) can0 11007FAA#197000004BD4A03E
(1760455590.835450) can0 1100AA7F#1970000000000000
(1760455590.835985) can0 11007FAA#1970000044E1A03E
(1760455590.836145) can0 1100AA7F#1970000000000000
(1760455590.836666) can0 11007FAA#19700000C8DAA03E
(1760455590.836827) can0 1100AA7F#1970000000000000
(1760455590.837347) can0 11007FAA#19700000C1E7A03E
(1760455590.837555) can0 1100AA7F#1970000000000000
(1760455590.838076) can0 11007FAA#19700000C1E7A03E
(1760455590.838239) can0 1100AA7F#1970000000000000
(1760455590.838762) can0 11007FAA#197000004BD4A03E
(1760455590.838927) can0 1100AA7F#1970000000000000
(1760455590.839416) can0 11007FAA#19700000C8DAA03E
(1760455590.839579) can0 1100AA7F#1970000000000000
(1760455590.840101) can0 11007FAA#1970000052C7A03E
(1760455590.840597) can0 1100AA7F#1970000000000000
(1760455590.841121) can0 11007FAA#197000004BD4A03E
(1760455590.841486) can0 1100AA7F#1970000000000000
(1760455590.841978) can0 11007FAA#19700000CFCDA03E
(1760455590.842311) can0 1100AA7F#1970000000000000
(1760455590.842843) can0 11007FAA#19700000C8DAA03E
(1760455590.843138) can0 1100AA7F#1970000000000000
(1760455590.843659) can0 11007FAA#197000004BD4A03E
(1760455590.843943) can0 1100AA7F#1970000000000000
(1760455590.844456) can0 11007FAA#19700000CFCDA03E
(1760455590.844836) can0 1100AA7F#1970000000000000
(1760455590.845341) can0 11007FAA#1970000044E1A03E
(1760455590.845632) can0 1100AA7F#1970000000000000
(1760455590.846142) can0 11007FAA#1970000044E1A03E
(1760455590.846346) can0 1100AA7F#1970000000000000
(1760455590.846851) can0 11007FAA#1970000052C7A03E
(1760455590.847032) can0 1100AA7F#1970000000000000
(1760455590.847540) can0 11007FAA#1970000044E1A03E
(1760455590.847740) can0 1100AA7F#1970000000000000
(1760455590.848268) can0 11007FAA#19700000CFCDA03E
(1760455590.848435) can0 1100AA7F#1970000000000000
(1760455590.848950) can0 11007FAA#197000004BD4A03E
(1760455590.849115) can0 1100AA7F#1970000000000000
(1760455590.849631) can0 11007FAA#197000004BD4A03E
(1760455590.849792) can0 1100AA7F#1970000000000000
(1760455590.850311) can0 11007FAA#1970000044E1A03E
(1760455590.850472) can0 1100AA7F#1970000000000000
(1760455590.850993) can0 11007FAA#19700000D6C0A03E
(1760455590.851155) can0 1100AA7F#1970000000000000
(1760455590.851678) can0 11007FAA#19700000C8DAA03E
(1760455590.851838) can0 1100AA7F#1970000000000000
(1760455590.852360) can0 11007FAA#1970000044E1A03E
(1760455590.852541) can0 1100AA7F#1970000000000000
(1760455590.853040) can0 11007FAA#19700000C8DAA03E
(1760455590.853201) can0 1100AA7F#1970000000000000
(1760455590.853687) can0 11007FAA#19700000C1E7A03E
