(1769184258.809745) can0 1200AA7F#16700000D3AE3CC0
(1769184258.810274) can0 02807FAA#6118821580700104
(1769184258.834880) can0 1200AA7F#16700000D3AE3CC0
(1769184258.835432) can0 02807FAA#614C81DD82290104
(1769184258.849032) can0 1200AA7F#167000002F603AC0
(1769184258.849651) can0 02807FAA#616A8227811B0104
(1769184258.871218) can0 1200AA7F#167000002F603AC0
(1769184258.871787) can0 02807FAA#619A81F77F980104
(1769184258.887020) can0 1200AA7F#16700000A10B38C0
(1769184258.887633) can0 02807FAA#61BC8234808F0104
(1769184258.907960) can0 1200AA7F#16700000A10B38C0
(1769184258.908492) can0 02807FAA#61EC82687E5A0104
(1769184258.932039) can0 1200AA7F#167000006FB135C0
(1769184258.932636) can0 02807FAA#62238264817A0104
(1769184258.956685) can0 1200AA7F#167000006FB135C0
(1769184258.957245) can0 02807FAA#625981F581F50104
(1769184258.970356) can0 1200AA7F#16700000DB5133C0
(1769184258.970913) can0 02807FAA#627882327FE70104
(1769184258.993046) can0 1200AA7F#16700000DB5133C0
(1769184258.993607) can0 02807FAA#62AD822D7FF70104
(1769184259.017657) can0 1200AA7F#167000002BED30C0
(1769184259.018200) can0 02807FAA#62E5822D81290104
(1769184259.035313) can0 1200AA7F#167000002BED30C0
(1769184259.035892) can0 02807FAA#630D81F381480104
(1769184259.054318) can0 1200AA7F#16700000A5832EC0
(1769184259.054868) can0 02807FAA#6337826580810104
(1769184259.072112) can0 1200AA7F#16700000A5832EC0
(1769184259.072690) can0 02807FAA#6361822D7F320104
(1769184259.095293) can0 1200AA7F#167000008C152CC0
(1769184259.095866) can0 02807FAA#6396824780EE0104
(1769184259.115707) can0 1200AA7F#167000008C152CC0
(1769184259.116256) can0 02807FAA#63C5822C81B30104
(1769184259.140110) can0 1200AA7F#1670000028A329C0
(1769184259.140668) can0 02807FAA#6401826780060104
(1769184259.164792) can0 1200AA7F#1670000028A329C0
(1769184259.165329) can0 02807FAA#6438827382240104
(1769184259.178681) can0 1200AA7F#16700000B92C27C0
(1769184259.179276) can0 02807FAA#645A8282807D0104
(1769184259.201683) can0 1200AA7F#16700000B92C27C0
(1769184259.202245) can0 02807FAA#648F829D80FB0104
(1769184259.225791) can0 1200AA7F#1670000087B224C0
(1769184259.226363) can0 02807FAA#64CC82657ECE0104
(1769184259.243201) can0 1200AA7F#1670000087B224C0
(1769184259.243726) can0 02807FAA#64F28265810F0104
(1769184259.262529) can0 1200AA7F#16700000D73422C0
(1769184259.263076) can0 02807FAA#652182667F430104
(1769184259.274508) can0 1200AA7F#16700000D73422C0
(1769184259.275071) can0 02807FAA#653B822E819E0104
(1769184259.303662) can0 1200AA7F#16700000EFB31FC0
(1769184259.304215) can0 02807FAA#6584825E7F670104
(1769184259.324017) can0 1200AA7F#16700000EFB31FC0
(1769184259.324596) can0 02807FAA#65B38265819C0104
(1769184259.349681) can0 1200AA7F#1670000010301DC0
(1769184259.350253) can0 02807FAA#65F1823181E10104
(1769184259.372411) can0 1200AA7F#1670000010301DC0
(1769184259.372944) can0 02807FAA#6629829D7F980104
(1769184259.387411) can0 1200AA7F#1670000080A91AC0
(1769184259.387961) can0 02807FAA#664C822C82310104
(1769184259.409533) can0 1200AA7F#1670000080A91AC0
(1769184259.410094) can0 02807FAA#6683828080840104
(1769184259.434082) can0 1200AA7F#16700000842018C0
(1769184259.434653) can0 02807FAA#66C0828080A30104
(1769184259.458270) can0 1200AA7F#16700000842018C0
(1769184259.458842) can0 02807FAA#66F98212822F0104
(1769184259.470665) can0 1200AA7F#16700000649515C0
(1769184259.471213) can0 02807FAA#6717825880E70104
(1769184259.482678) can0 1200AA7F#16700000649515C0
(1769184259.483238) can0 02807FAA#6735827080340104
(1769184259.512020) can0 1200AA7F#16700000600813C0
(1769184259.512565) can0 02807FAA#677E8266809F0104
(1769184259.532412) can0 1200AA7F#16700000600813C0
(1769184259.533001) can0 02807FAA#67B081F981F20104
(1769184259.556457) can0 1200AA7F#16700000BF7910C0
(1769184259.557008) can0 02807FAA#67EE82B980770104
(1769184259.581526) can0 1200AA7F#16700000BF7910C0
(1769184259.582113) can0 02807FAA#682A826580750104
(1769184259.595389) can0 1200AA7F#16700000C5E90DC0
(1769184259.595969) can0 02807FAA#684E82887ED90104
(1769184259.617277) can0 1200AA7F#16700000C5E90DC0
(1769184259.617838) can0 02807FAA#688382A480B60104
(1769184259.641964) can0 1200AA7F#16700000BB580BC0
(1769184259.642510) can0 02807FAA#68C28211810E0104
(1769184259.659287) can0 1200AA7F#16700000BB580BC0
(1769184259.659818) can0 02807FAA#68EC824980440104
(1769184259.678811) can0 1200AA7F#16700000E1C608C0
(1769184259.679352) can0 02807FAA#691C822D81F40104
(1769184259.691406) can0 1200AA7F#16700000E1C608C0
(1769184259.691933) can0 02807FAA#693A822F81620104
(1769184259.720297) can0 1200AA7F#167000007D3406C0
(1769184259.720847) can0 02807FAA#6983829781AE0104
(1769184259.741620) can0 1200AA7F#167000007D3406C0
(1769184259.742106) can0 02807FAA#69BA82667FCA0104
(1769184259.764915) can0 1200AA7F#16700000D5A103C0
(1769184259.765462) can0 02807FAA#69F6829D80380104
(1769184259.788848) can0 1200AA7F#16700000D5A103C0
(1769184259.789393) can0 02807FAA#6A308265818E0104
(1769184259.804200) can0 1200AA7F#167000002B0F01C0
(1769184259.804744) can0 02807FAA#6A5782677FFA0104
(1769184259.825683) can0 1200AA7F#167000002B0F01C0
(1769184259.826260) can0 02807FAA#6A8B826582920104
(1769184259.850388) can0 1200AA7F#167000008AF9FCBF
(1769184259.850970) can0 02807FAA#6ACC82A17F680104
(1769184259.874864) can0 1200AA7F#167000008AF9FCBF
(1769184259.875376) can0 02807FAA#6B0782847FD20104
(1769184259.888840) can0 1200AA7F#16700000DAD5F7BF
(1769184259.889401) can0 02807FAA#6B2B82AD7EAA0104
(1769184259.911599) can0 1200AA7F#16700000DAD5F7BF
(1769184259.912142) can0 02807FAA#6B62829C80C80104
(1769184259.928705) can0 1200AA7F#16700000C2B3F2BF
(1769184259.929278) can0 02807FAA#6B8F828F7F9C0104
(1769184259.948580) can0 1200AA7F#16700000C2B3F2BF
(1769184259.949162) can0 02807FAA#6BBF826B80DC0104
(1769184259.973716) can0 1200AA7F#16700000CE93EDBF
(1769184259.974312) can0 02807FAA#6BFF823C82470104
(1769184260.009826) can0 1200AA7F#16700000CE93EDBF
(1769184260.010365) can0 02807FAA#6C598234814E0104
(1769184260.013034) can0 1200AA7F#167000009276E8BF
(1769184260.013566) can0 02807FAA#6C61829A81980104
(1769184260.034596) can0 1200AA7F#167000009276E8BF
(1769184260.035174) can0 02807FAA#6C99829D7EC20104
(1769184260.058699) can0 1200AA7F#167000008A5CE3BF
(1769184260.059268) can0 02807FAA#6CD5826980C20104
(1769184260.087587) can0 1200AA7F#167000008A5CE3BF
(1769184260.088185) can0 02807FAA#6D1B82BB801B0104
(1769184260.095387) can0 1200AA7F#167000004246DEBF
(1769184260.095953) can0 02807FAA#6D2F826580B70104
(1769184260.119748) can0 1200AA7F#167000004246DEBF
(1769184260.120268) can0 02807FAA#6D6B824981FA0104
(1769184260.137081) can0 1200AA7F#167000005234D9BF
(1769184260.137763) can0 02807FAA#6D98829881120104
(1769184260.156409) can0 1200AA7F#167000005234D9BF
(1769184260.156960) can0 02807FAA#6DC8827381520104
(1769184260.180971) can0 1200AA7F#167000003227D4BF
(1769184260.181545) can0 02807FAA#6E0982707F7A0104
(1769184260.205190) can0 1200AA7F#167000003227D4BF
(1769184260.205743) can0 02807FAA#6E43827F81420104
(1769184260.220540) can0 1200AA7F#16700000721FCFBF
(1769184260.221108) can0 02807FAA#6E6B822D802D0104
(1769184260.242010) can0 1200AA7F#16700000721FCFBF
(1769184260.242567) can0 02807FAA#6E9F826680C40104
(1769184260.266699) can0 1200AA7F#167000009E1DCABF
(1769184260.267242) can0 02807FAA#6EDD82B281C00104
(1769184260.291203) can0 1200AA7F#167000009E1DCABF
(1769184260.291713) can0 02807FAA#6F1A82817E7A0104
(1769184260.304172) can0 1200AA7F#167000003F22C5BF
(1769184260.304740) can0 02807FAA#6F37826781700104
(1769184260.327799) can0 1200AA7F#167000003F22C5BF
(1769184260.328371) can0 02807FAA#6F73825A7F130104
(1769184260.345297) can0 1200AA7F#16700000DA2DC0BF
(1769184260.345871) can0 02807FAA#6F9D82A180E20104
(1769184260.364311) can0 1200AA7F#16700000DA2DC0BF
(1769184260.364852) can0 02807FAA#6FCD82697F6C0104
(1769184260.389014) can0 1200AA7F#16700000FF40BBBF
(1769184260.389590) can0 02807FAA#700B826280BA0104
(1769184260.413443) can0 1200AA7F#16700000FF40BBBF
(1769184260.414010) can0 02807FAA#7045826781A20104
(1769184260.428613) can0 1200AA7F#16700000325CB6BF
(1769184260.429148) can0 02807FAA#706C8296812F0104
(1769184260.450311) can0 1200AA7F#16700000325CB6BF
(1769184260.450859) can0 02807FAA#709F826581CD0104
(1769184260.474707) can0 1200AA7F#167000000B80B1BF
(1769184260.475254) can0 02807FAA#70DD82657FA60104
(1769184260.499025) can0 1200AA7F#167000000B80B1BF
(1769184260.499581) can0 02807FAA#71168264813E0104
(1769184260.512043) can0 1200AA7F#16700000F7ACACBF
(1769184260.512571) can0 02807FAA#713582657F6A0104
(1769184260.535778) can0 1200AA7F#16700000F7ACACBF
(1769184260.536318) can0 02807FAA#716D826780360104
(1769184260.553729) can0 1200AA7F#167000009AE3A7BF
(1769184260.554276) can0 02807FAA#719B82317F990104
(1769184260.560014) can0 1200AA7F#167000009AE3A7BF
(1769184260.560591) can0 02807FAA#71A881F682790104
(1769184260.597095) can0 1200AA7F#167000007224A3BF
(1769184260.597700) can0 02807FAA#7202824681970104
(1769184260.621581) can0 1200AA7F#167000007224A3BF
(1769184260.622142) can0 02807FAA#723C829B7F360104
(1769184260.637080) can0 1200AA7F#167000000A709EBF
(1769184260.637700) can0 02807FAA#7260826182530104
(1769184260.658061) can0 1200AA7F#167000000A709EBF
(1769184260.658608) can0 02807FAA#7292825B80A20104
(1769184260.682904) can0 1200AA7F#16700000F3C699BF
(1769184260.683454) can0 02807FAA#72CC828F80A80104
(1769184260.707212) can0 1200AA7F#16700000F3C699BF
(1769184260.707738) can0 02807FAA#7305822E7F340104
(1769184260.722044) can0 1200AA7F#16700000AA2995BF
(1769184260.722597) can0 02807FAA#7326826281470104
(1769184260.744185) can0 1200AA7F#16700000AA2995BF
(1769184260.744735) can0 02807FAA#7359823B7F4B0104
(1769184260.768503) can0 1200AA7F#16700000CA9890BF
(1769184260.769029) can0 02807FAA#7390825D80890104
(1769184260.769077) can0 1200AA7F#16700000CA9890BF
(1769184260.769702) can0 02807FAA#7392822E80570104
(1769184260.805284) can0 1200AA7F#16700000C2148CBF
(1769184260.805864) can0 02807FAA#73E3825E80FD0104
(1769184260.830757) can0 1200AA7F#16700000C2148CBF
(1769184260.831281) can0 02807FAA#741C81F580D00104
(1769184260.845370) can0 1200AA7F#16700000329E87BF
(1769184260.845937) can0 02807FAA#743E823B806B0104
(1769184260.866739) can0 1200AA7F#16700000329E87BF
(1769184260.867320) can0 02807FAA#746F82657F880104
(1769184260.890999) can0 1200AA7F#16700000A23583BF
(1769184260.891548) can0 02807FAA#74A6822D80F00104
(1769184260.915795) can0 1200AA7F#16700000A23583BF
(1769184260.916334) can0 02807FAA#74DC81F681510104
(1769184260.929054) can0 1200AA7F#167000001DB77DBF
(1769184260.929619) can0 02807FAA#74FA822E806F0104
(1769184260.953018) can0 1200AA7F#167000001DB77DBF
(1769184260.953555) can0 02807FAA#752E81F481FE0104
(1769184260.976451) can0 1200AA7F#16700000162175BF
(1769184260.976618) can0 1200AA7F#16700000162175BF
(1769184260.977094) can0 02807FAA#7563822A80800104
(1769184260.977238) can0 02807FAA#756381F980900104
(1769184261.013632) can0 1200AA7F#1670000056AA6CBF
(1769184261.014203) can0 02807FAA#75B1820280290104
(1769184261.038937) can0 1200AA7F#1670000056AA6CBF
(1769184261.039464) can0 02807FAA#75E781F4823E0104
(1769184261.053859) can0 1200AA7F#16700000C65364BF
(1769184261.054409) can0 02807FAA#7608823481610104
(1769184261.075569) can0 1200AA7F#16700000C65364BF
(1769184261.076140) can0 02807FAA#7638822D7FF40104
(1769184261.099487) can0 1200AA7F#167000007D1E5CBF
(1769184261.100046) can0 02807FAA#766A822D805A0104
(1769184261.124215) can0 1200AA7F#167000007D1E5CBF
(1769184261.124798) can0 02807FAA#769D81BE81CB0104
(1769184261.137316) can0 1200AA7F#16700000A40B54BF
(1769184261.137869) can0 02807FAA#76B8825780A70104
(1769184261.160758) can0 1200AA7F#16700000A40B54BF
(1769184261.161321) can0 02807FAA#76E981DC7F460104
(1769184261.185014) can0 1200AA7F#16700000641C4CBF
(1769184261.185532) can0 02807FAA#771A81F780370104
(1769184261.221104) can0 1200AA7F#16700000641C4CBF
(1769184261.221727) can0 02807FAA#7761820B80F10104
(1769184261.221806) can0 1200AA7F#16700000A55144BF
(1769184261.222390) can0 02807FAA#776281FC80E80104
(1769184261.246108) can0 1200AA7F#16700000A55144BF
(1769184261.246651) can0 02807FAA#7793822D80670104
(1769184261.262057) can0 1200AA7F#1670000085AC3CBF
(1769184261.262581) can0 02807FAA#77B281EF821C0104
(1769184261.283257) can0 1200AA7F#1670000085AC3CBF
(1769184261.283775) can0 02807FAA#77DD81F080C30104
(1769184261.307515) can0 1200AA7F#167000001C2E35BF
(1769184261.308059) can0 02807FAA#780E81E881E80104
(1769184261.332010) can0 1200AA7F#167000001C2E35BF
(1769184261.332560) can0 02807FAA#783C81C481560104
(1769184261.346604) can0 1200AA7F#1670000075D72DBF
(1769184261.347108) can0 02807FAA#785981BA7FC10104
(1769184261.368519) can0 1200AA7F#1670000075D72DBF
(1769184261.369055) can0 02807FAA#788081E880B50104
(1769184261.393587) can0 1200AA7F#16700000C4A926BF
(1769184261.394237) can0 02807FAA#78B281D37F8F0104
(1769184261.418272) can0 1200AA7F#16700000C4A926BF
(1769184261.418805) can0 02807FAA#78DC81C481080104
(1769184261.430981) can0 1200AA7F#16700000F5A51FBF
(1769184261.431533) can0 02807FAA#78F481EB80C00104
(1769184261.465997) can0 1200AA7F#16700000F5A51FBF
(1769184261.466548) can0 02807FAA#793281F680130104
(1769184261.470461) can0 1200AA7F#1670000025CD18BF
(1769184261.470985) can0 02807FAA#793A81F6803E0104
(1769184261.491344) can0 1200AA7F#1670000025CD18BF
(1769184261.491888) can0 02807FAA#796181CB7E690104
(1769184261.515597) can0 1200AA7F#167000007D2012BF
(1769184261.516151) can0 02807FAA#798B81CC81730104
(1769184261.539897) can0 1200AA7F#167000007D2012BF
(1769184261.540425) can0 02807FAA#79B681F680190104
(1769184261.555092) can0 1200AA7F#16700000F4A00BBF
(1769184261.555642) can0 02807FAA#79CF818581A20104
(1769184261.577345) can0 1200AA7F#16700000F4A00BBF
(1769184261.577856) can0 02807FAA#79F581A280430104
(1769184261.601359) can0 1200AA7F#16700000AD4F05BF
(1769184261.601941) can0 02807FAA#7A1F818D7F100104
(1769184261.625767) can0 1200AA7F#16700000AD4F05BF
(1769184261.626309) can0 02807FAA#7A44819180A80104
(1769184261.637951) can0 1200AA7F#167000008A5BFEBE
(1769184261.638550) can0 02807FAA#7A57818D818B0104
(1769184261.662640) can0 1200AA7F#167000008A5BFEBE
(1769184261.663219) can0 02807FAA#7A7F8185804A0104
(1769184261.678753) can0 1200AA7F#167000006B78F2BE
(1769184261.679297) can0 02807FAA#7A9881AF810F0104
(1769184261.699389) can0 1200AA7F#167000006B78F2BE
(1769184261.699895) can0 02807FAA#7AB9818780A40104
(1769184261.724159) can0 1200AA7F#167000002AF8E6BE
(1769184261.724742) can0 02807FAA#7AE1815D82220104
(1769184261.760784) can0 1200AA7F#167000002AF8E6BE
(1769184261.761346) can0 02807FAA#7B17819480A10104
(1769184261.762093) can0 1200AA7F#167000000ADDDBBE
(1769184261.762666) can0 02807FAA#7B198176807F0104
(1769184261.797487) can0 1200AA7F#167000000ADDDBBE
(1769184261.797994) can0 02807FAA#7B4C819180860104
(1769184261.809552) can0 1200AA7F#167000003A29D1BE
(1769184261.810096) can0 02807FAA#7B5F817280710104
(1769184261.834093) can0 1200AA7F#167000003A29D1BE
(1769184261.834576) can0 02807FAA#7B80815C7F600104
(1769184261.845984) can0 1200AA7F#16700000CADEC6BE
(1769184261.846532) can0 02807FAA#7B90811E80610104
(1769184261.871182) can0 1200AA7F#16700000CADEC6BE
(1769184261.871758) can0 02807FAA#7BB1818A80940104
(1769184261.886983) can0 1200AA7F#16700000DAFFBCBE
(1769184261.887531) can0 02807FAA#7BC7815081870104
(1769184261.907826) can0 1200AA7F#16700000DAFFBCBE
(1769184261.908310) can0 02807FAA#7BE481457FC50104
(1769184261.931933) can0 1200AA7F#167000009A8EB3BE
(1769184261.932504) can0 02807FAA#7C03814E80F80104
(1769184261.956233) can0 1200AA7F#167000009A8EB3BE
(1769184261.956829) can0 02807FAA#7C218128808F0104
(1769184261.971283) can0 1200AA7F#167000004A8DAABE
(1769184261.971825) can0 02807FAA#7C35814E7F330104
(1769184261.993347) can0 1200AA7F#167000004A8DAABE
(1769184261.993849) can0 02807FAA#7C4D80F981F20104
(1769184262.019929) can0 1200AA7F#16700000EAFDA1BE
(1769184262.020452) can0 02807FAA#7C6D811681710104
(1769184262.041649) can0 1200AA7F#16700000EAFDA1BE
(1769184262.042183) can0 02807FAA#7C85812480380104
(1769184262.054963) can0 1200AA7F#16700000AAE299BE
(1769184262.055515) can0 02807FAA#7C9380F17F680104
(1769184262.079069) can0 1200AA7F#16700000AAE299BE
(1769184262.079635) can0 02807FAA#7CAB811682500104
(1769184262.095433) can0 1200AA7F#16700000BB3D92BE
(1769184262.095988) can0 02807FAA#7CBF813980200104
(1769184262.127425) can0 1200AA7F#16700000BB3D92BE
(1769184262.127949) can0 02807FAA#7CE2811B7F430104
(1769184262.141054) can0 1200AA7F#167000001A118BBE
(1769184262.141595) can0 02807FAA#7CF180F07F1A0104
(1769184262.164683) can0 1200AA7F#167000001A118BBE
(1769184262.165242) can0 02807FAA#7D0480C781FA0104
(1769184262.179434) can0 1200AA7F#167000005A5F84BE
(1769184262.179986) can0 02807FAA#7D12810D81780104
(1769184262.202184) can0 1200AA7F#167000005A5F84BE
(1769184262.202722) can0 02807FAA#7D2780F0813A0104
(1769184262.226446) can0 1200AA7F#1670000055547CBE
(1769184262.227040) can0 02807FAA#7D3E80E5807C0104
(1769184262.250556) can0 1200AA7F#1670000055547CBE
(1769184262.251158) can0 02807FAA#7D5280D47F9E0104
(1769184262.262515) can0 1200AA7F#16700000D5E770BE
(1769184262.263095) can0 02807FAA#7D5A80A7817A0104
(1769184262.287357) can0 1200AA7F#16700000D5E770BE
(1769184262.287904) can0 02807FAA#7D6E80EC80C30104
(1769184262.303799) can0 1200AA7F#16700000947D66BE
(1769184262.304346) can0 02807FAA#7D7C80CE809F0104
(1769184262.336389) can0 1200AA7F#16700000947D66BE
(1769184262.336993) can0 02807FAA#7D9580C97FAC0104
(1769184262.348086) can0 1200AA7F#1670000094195DBE
(1769184262.348636) can0 02807FAA#7D9E80B77F250104
(1769184262.372932) can0 1200AA7F#1670000094195DBE
(1769184262.373462) can0 02807FAA#7DAE808480110104
(1769184262.387838) can0 1200AA7F#1670000054C054BE
(1769184262.388388) can0 02807FAA#7DB6807E80CE0104
(1769184262.409692) can0 1200AA7F#1670000054C054BE
(1769184262.410250) can0 02807FAA#7DC180C281C60104
(1769184262.433815) can0 1200AA7F#1670000014764DBE
(1769184262.434245) can0 1200AA7F#1670000014764DBE
(1769184262.434418) can0 02807FAA#7DD080A580C40104
(1769184262.434869) can0 02807FAA#7DD0808680980104
(1769184262.470581) can0 1200AA7F#16700000363F47BE
(1769184262.471146) can0 02807FAA#7DE18071815A0104
(1769184262.495289) can0 1200AA7F#16700000363F47BE
(1769184262.495838) can0 02807FAA#7DED807B805C0104
(1769184262.512037) can0 1200AA7F#16700000F51F42BE
(1769184262.512580) can0 02807FAA#7DF780757F660104
(1769184262.532144) can0 1200AA7F#16700000F51F42BE
(1769184262.532686) can0 02807FAA#7DFE80527FD20104
(1769184262.556528) can0 1200AA7F#16700000951C3EBE
(1769184262.557084) can0 02807FAA#7E07806B800C0104
(1769184262.580870) can0 1200AA7F#16700000951C3EBE
(1769184262.581437) can0 02807FAA#7E0D806880E70104
(1769184262.596307) can0 1200AA7F#1670000074393BBE
(1769184262.596824) can0 02807FAA#7E12803681410104
(1769184262.630027) can0 1200AA7F#1670000074393BBE
(1769184262.630578) can0 02807FAA#7E1A803780C80104
(1769184262.641929) can0 1200AA7F#16700000D47A39BE
(1769184262.642477) can0 02807FAA#7E1C8039812E0104
(1769184262.667420) can0 1200AA7F#16700000D47A39BE
(1769184262.667954) can0 02807FAA#7E21802A815A0104
(1769184262.678788) can0 1200AA7F#16700000D5E438BE
(1769184262.679335) can0 02807FAA#7E22803781320104
(1769184262.703177) can0 1200AA7F#16700000D5E438BE
(1769184262.703797) can0 02807FAA#7E25801B81420104
(1769184262.720465) can0 1200AA7F#16700000D5E438BE
(1769184262.721114) can0 02807FAA#7E267FFF802D0104
(1769184262.764667) can0 1200AA7F#16700000B5DB39BE
(1769184262.765230) can0 02807FAA#7E287FFF807E0104
(1769184262.813374) can0 1200AA7F#1670000034BA3CBE
(1769184262.813510) can0 1200AA7F#1670000034BA3CBE
(1769184262.814013) can0 02807FAA#7E277FFF80F80104
(1769184262.814199) can0 02807FAA#7E277FFF81040104
(1769184262.851732) can0 1200AA7F#16700000347741BE
(1769184262.852285) can0 02807FAA#7E237FC87F9B0104
(1769184262.875056) can0 1200AA7F#16700000347741BE
(1769184262.875603) can0 02807FAA#7E1F7FCE806E0104
(1769184262.887799) can0 1200AA7F#16700000B40948BE
(1769184262.888369) can0 02807FAA#7E1C7FAB80430104
(1769184262.911717) can0 1200AA7F#16700000B40948BE
(1769184262.912293) can0 02807FAA#7E157FC280500104
(1769184262.928798) can0 1200AA7F#16700000746850BE
(1769184262.929405) can0 02807FAA#7E0F7F927F740104
(1769184262.959671) can0 1200AA7F#16700000746850BE
(1769184262.960222) can0 02807FAA#7E047F917EBF0104
(1769184262.972806) can0 1200AA7F#16700000548A5ABE
(1769184262.972971) can0 1200AA7F#16700000548A5ABE
(1769184262.973454) can0 02807FAA#7DFE7F8A7E630104
(1769184262.973600) can0 02807FAA#7DFE7F7A7E690104
(1769184263.012514) can0 1200AA7F#16700000556666BE
(1769184263.013069) can0 02807FAA#7DE97F7480110104
(1769184263.046008) can0 1200AA7F#16700000556666BE
(1769184263.046608) can0 02807FAA#7DD57F497F8E0104
(1769184263.060977) can0 1200AA7F#1670000054F373BE
(1769184263.061479) can0 02807FAA#7DCB7F587FBA0104
(1769184263.083215) can0 1200AA7F#1670000054F373BE
(1769184263.083813) can0 02807FAA#7DBD7F5780BE0104
(1769184263.097274) can0 1200AA7F#167000000A9481BE
(1769184263.097850) can0 02807FAA#7DB47F777F8A0104
(1769184263.132343) can0 1200AA7F#167000000A9481BE
(1769184263.132913) can0 02807FAA#7D997F1E7E9D0104
(1769184263.143952) can0 1200AA7F#16700000CAFD89BE
(1769184263.144522) can0 02807FAA#7D8E7F3C7F260104
(1769184263.168351) can0 1200AA7F#16700000CAFD89BE
(1769184263.168897) can0 02807FAA#7D797F237F8E0104
(1769184263.183171) can0 1200AA7F#167000005A3293BE
(1769184263.183725) can0 02807FAA#7D6C7F1B7FF30104
(1769184263.205829) can0 1200AA7F#167000005A3293BE
(1769184263.206377) can0 02807FAA#7D567F247FB80104
(1769184263.220536) can0 1200AA7F#167000002A2D9DBE
(1769184263.221081) can0 02807FAA#7D487EF57D960104
(1769184263.254695) can0 1200AA7F#167000002A2D9DBE
(1769184263.255255) can0 02807FAA#7D207EC37FCE0104
(1769184263.266516) can0 1200AA7F#16700000BAE9A7BE
(1769184263.267101) can0 02807FAA#7D117EEF80400104
(1769184263.290830) can0 1200AA7F#16700000BAE9A7BE
(1769184263.291391) can0 02807FAA#7CF77EFA7F0F0104
(1769184263.303809) can0 1200AA7F#167000005A63B3BE
(1769184263.304418) can0 02807FAA#7CE97EE87D880104
(1769184263.327924) can0 1200AA7F#167000005A63B3BE
(1769184263.328525) can0 02807FAA#7CCA7ECD7F440104
(1769184263.351852) can0 1200AA7F#167000008A95BFBE
(1769184263.352037) can0 1200AA7F#167000008A95BFBE
(1769184263.352517) can0 02807FAA#7CA97ECD809B0104
(1769184263.352663) can0 02807FAA#7CA97EAB80990104
(1769184263.388815) can0 1200AA7F#16700000CA7BCCBE
(1769184263.389387) can0 02807FAA#7C7B7E787F970104
(1769184263.413447) can0 1200AA7F#16700000CA7BCCBE
(1769184263.413966) can0 02807FAA#7C587E807FBA0104
(1769184263.429385) can0 1200AA7F#167000007A11DABE
(1769184263.429932) can0 02807FAA#7C417EC77F2C0104
(1769184263.450652) can0 1200AA7F#167000007A11DABE
(1769184263.451211) can0 02807FAA#7C217E787FA90104
(1769184263.474861) can0 1200AA7F#167000000A52E8BE
(1769184263.475428) can0 02807FAA#7BFB7E777FD80104
(1769184263.499831) can0 1200AA7F#167000000A52E8BE
(1769184263.500409) can0 02807FAA#7BD67E4C7E960104
(1769184263.512147) can0 1200AA7F#16700000FA38F7BE
(1769184263.512720) can0 02807FAA#7BC17E4F80400104
(1769184263.536564) can0 1200AA7F#16700000FA38F7BE
(1769184263.537103) can0 02807FAA#7B987E68808B0104
(1769184263.560060) can0 1200AA7F#16700000DD6003BF
(1769184263.560259) can0 1200AA7F#16700000DD6003BF
(1769184263.560808) can0 02807FAA#7B707E0C7EFE0104
(1769184263.560931) can0 02807FAA#7B707E217F070104
(1769184263.597013) can0 1200AA7F#16700000D5730BBF
(1769184263.597565) can0 02807FAA#7B327E747FA70104
(1769184263.621598) can0 1200AA7F#16700000D5730BBF
(1769184263.622146) can0 02807FAA#7B077E3F80450104
(1769184263.637328) can0 1200AA7F#167000002ED313BF
(1769184263.637867) can0 02807FAA#7AE97E13803D0104
(1769184263.657983) can0 1200AA7F#167000002ED313BF
(1769184263.658529) can0 02807FAA#7AC47E1E7E0E0104
(1769184263.682896) can0 1200AA7F#16700000867C1CBF
(1769184263.683416) can0 02807FAA#7A917E0880260104
(1769184263.707496) can0 1200AA7F#16700000867C1CBF
(1769184263.708043) can0 02807FAA#7A637DDE7E6A0104
(1769184263.722190) can0 1200AA7F#16700000AD6D25BF
(1769184263.722663) can0 02807FAA#7A457E077FEA0104
(1769184263.744572) can0 1200AA7F#16700000AD6D25BF
(1769184263.745191) can0 02807FAA#7A1A7E3E7DAD0104
(1769184263.768422) can0 1200AA7F#1670000055A42EBF
(1769184263.768599) can0 1200AA7F#1670000055A42EBF
(1769184263.769098) can0 02807FAA#79E87E017F620104
(1769184263.769215) can0 02807FAA#79E77E087F6A0104
(1769184263.805336) can0 1200AA7F#16700000351E38BF
(1769184263.805875) can0 02807FAA#799C7DFA7FAC0104
(1769184263.829939) can0 1200AA7F#16700000351E38BF
(1769184263.830480) can0 02807FAA#79687E0B7E770104
(1769184263.845741) can0 1200AA7F#1670000006D941BF
(1769184263.846274) can0 02807FAA#79467D977F920104
(1769184263.871927) can0 1200AA7F#1670000006D941BF
(1769184263.872454) can0 02807FAA#790B7DEE7EE30104
(1769184263.890870) can0 1200AA7F#1670000085D24BBF
(1769184263.891416) can0 02807FAA#78DF7DD4804B0104
(1769184263.927650) can0 1200AA7F#1670000085D24BBF
(1769184263.928182) can0 02807FAA#788C7DA77F0B0104
(1769184263.929699) can0 1200AA7F#16700000660856BF
(1769184263.930323) can0 02807FAA#78877DCE7F620104
(1769184263.964200) can0 1200AA7F#16700000660856BF
(1769184263.964730) can0 02807FAA#78367D4A80490104
(1769184263.978919) can0 1200AA7F#167000005E7860BF
(1769184263.979464) can0 02807FAA#78137D7F80240104
(1769184264.013778) can0 1200AA7F#167000005E7860BF
(1769184264.014318) can0 02807FAA#77C47DD07F260104
(1769184264.016229) can0 1200AA7F#167000002D206BBF
(1769184264.016752) can0 02807FAA#77BE7D997EB20104
(1769184264.053933) can0 1200AA7F#167000002D206BBF
(1769184264.054447) can0 02807FAA#77637DCD7FAC0104
(1769184264.055510) can0 1200AA7F#1670000085FD75BF
(1769184264.056056) can0 02807FAA#77607D7D7F010104
(1769184264.087168) can0 1200AA7F#1670000085FD75BF
(1769184264.087685) can0 02807FAA#77107D977F810104
(1769184264.101174) can0 1200AA7F#167000000E8780BF
(1769184264.101645) can0 02807FAA#76EB7D9A7EDB0104
(1769184264.136706) can0 1200AA7F#167000000E8780BF
(1769184264.137254) can0 02807FAA#76917D997F5A0104
(1769184264.147393) can0 1200AA7F#16700000E32786BF
(1769184264.147911) can0 02807FAA#76777D567E450104
(1769184264.172882) can0 1200AA7F#16700000E32786BF
(1769184264.173459) can0 02807FAA#76367DD07FB40104
(1769184264.185994) can0 1200AA7F#167000000BE08BBF
(1769184264.186523) can0 02807FAA#76167D297FDB0104
(1769184264.209687) can0 1200AA7F#167000000BE08BBF
(1769184264.210268) can0 02807FAA#75D87E077F0B0104
(1769184264.222725) can0 1200AA7F#167000006AAE91BF
(1769184264.223290) can0 02807FAA#75B67CF17FAF0104
(1769184264.258212) can0 1200AA7F#167000006AAE91BF
(1769184264.258737) can0 02807FAA#75557D18803D0104
(1769184264.270251) can0 1200AA7F#16700000E29197BF
(1769184264.270868) can0 02807FAA#75327D2180470104
(1769184264.294899) can0 1200AA7F#16700000E29197BF
(1769184264.295436) can0 02807FAA#74F07D6D7EF00104
(1769184264.307605) can0 1200AA7F#167000004A899DBF
(1769184264.308176) can0 02807FAA#74CC7D2980310104
(1769184264.331715) can0 1200AA7F#167000004A899DBF
(1769184264.332328) can0 02807FAA#748B7D027F110104
(1769184264.346585) can0 1200AA7F#167000007A93A3BF
(1769184264.347134) can0 02807FAA#74617D8B7DF10104
(1769184264.380388) can0 1200AA7F#167000007A93A3BF
(1769184264.380952) can0 02807FAA#74007D297E0B0104
(1769184264.393530) can0 1200AA7F#167000005AAFA9BF
(1769184264.394076) can0 1200AA7F#167000005AAFA9BF
(1769184264.394143) can0 02807FAA#73D77D38800B0104
(1769184264.394629) can0 02807FAA#73D67D5480060104
(1769184264.430789) can0 1200AA7F#16700000B7DBAFBF
(1769184264.431347) can0 02807FAA#736D7D297FED0104
(1769184264.466465) can0 1200AA7F#16700000B7DBAFBF
(1769184264.467026) can0 02807FAA#73047D307FC40104
(1769184264.478374) can0 1200AA7F#167000007B17B6BF
(1769184264.478928) can0 02807FAA#72E37CA77EBC0104
(1769184264.503540) can0 1200AA7F#167000007B17B6BF
(1769184264.504079) can0 02807FAA#729B7DA57D800104
(1769184264.517057) can0 1200AA7F#167000007B61BCBF
(1769184264.517611) can0 02807FAA#72727D0C80310104
(1769184264.552527) can0 1200AA7F#167000007B61BCBF
(1769184264.553044) can0 02807FAA#720A7CE47F6A0104
(1769184264.554865) can0 1200AA7F#1670000097B8C2BF
(1769184264.555436) can0 02807FAA#72027CCC805C0104
(1769184264.588887) can0 1200AA7F#1670000097B8C2BF
(1769184264.589453) can0 02807FAA#71997CF080B70104
(1769184264.601505) can0 1200AA7F#16700000AA1BC9BF
(1769184264.602056) can0 02807FAA#71757CB97EF30104
(1769184264.626555) can0 1200AA7F#16700000AA1BC9BF
(1769184264.627151) can0 02807FAA#712A7D367DE30104
(1769184264.639872) can0 1200AA7F#167000008A89CFBF
(1769184264.640412) can0 02807FAA#71007D0D7F5A0104
(1769184264.662606) can0 1200AA7F#167000008A89CFBF
(1769184264.663143) can0 02807FAA#70BC7CA77EF20104
(1769184264.679091) can0 1200AA7F#167000001E01D6BF
(1769184264.679613) can0 02807FAA#70877D0180400104
(1769184264.710990) can0 1200AA7F#167000001E01D6BF
(1769184264.711538) can0 02807FAA#70237D447E770104
(1769184264.723888) can0 1200AA7F#167000004281DCBF
(1769184264.724457) can0 02807FAA#6FFA7CB980180104
(1769184264.748207) can0 1200AA7F#167000004281DCBF
(1769184264.748706) can0 02807FAA#6FB17CB97EE20104
(1769184264.763186) can0 1200AA7F#16700000C608E3BF
(1769184264.763733) can0 02807FAA#6F7F7CBA80820104
(1769184264.796894) can0 1200AA7F#16700000C608E3BF
(1769184264.797471) can0 02807FAA#6F157D4A7F420104
(1769184264.809640) can0 1200AA7F#167000009396E9BF
(1769184264.810212) can0 02807FAA#6EED7C7B7FCE0104
(1769184264.834913) can0 1200AA7F#167000009396E9BF
(1769184264.835427) can0 02807FAA#6EA17CBA7E1A0104
(1769184264.846967) can0 1200AA7F#167000007E29F0BF
(1769184264.847510) can0 02807FAA#6E797CC77FD70104
(1769184264.871352) can0 1200AA7F#167000007E29F0BF
(1769184264.871874) can0 02807FAA#6E2C7CA7801B0104
(1769184264.888161) can0 1200AA7F#1670000066C0F6BF
(1769184264.888782) can0 02807FAA#6DF87D3A7D770104
(1769184264.894887) can0 1200AA7F#1670000066C0F6BF
(1769184264.895396) can0 02807FAA#6DE27CB97F590104
(1769184264.931993) can0 1200AA7F#167000002A5AFDBF
(1769184264.932507) can0 02807FAA#6D6A7CBE7FED0104
(1769184264.955877) can0 1200AA7F#167000002A5AFDBF
(1769184264.956482) can0 02807FAA#6D1E7CB07FE10104
(1769184264.971393) can0 1200AA7F#16700000D0FA01C0
(1769184264.971938) can0 02807FAA#6CED7D5F7E230104
(1769184265.005097) can0 1200AA7F#16700000D0FA01C0
(1769184265.005614) can0 02807FAA#6C827CB57E1A0104
(1769184265.017885) can0 1200AA7F#16700000D54805C0
(1769184265.018429) can0 02807FAA#6C557CEB7FC50104
(1769184265.054978) can0 1200AA7F#16700000D54805C0
(1769184265.055550) can0 02807FAA#6BE17D5F7E340104
(1769184265.057816) can0 1200AA7F#16700000929608C0
(1769184265.058357) can0 02807FAA#6BD97D4B7D480104
(1769184265.090560) can0 1200AA7F#16700000929608C0
(1769184265.091141) can0 02807FAA#6B727C8F7E310104
(1769184265.102604) can0 1200AA7F#1670000072E30BC0
(1769184265.103178) can0 02807FAA#6B497CC680600104
(1769184265.127699) can0 1200AA7F#1670000072E30BC0
(1769184265.128262) can0 02807FAA#6AFB7CCC7FC10104
(1769184265.140178) can0 1200AA7F#16700000E52E0FC0
(1769184265.140719) can0 02807FAA#6AD37D457F6E0104
(1769184265.164484) can0 1200AA7F#16700000E52E0FC0
(1769184265.164970) can0 02807FAA#6A857CB980180104
(1769184265.180491) can0 1200AA7F#167000005C7812C0
(1769184265.181051) can0 02807FAA#6A527C9E7F1A0104
(1769184265.212981) can0 1200AA7F#167000005C7812C0
(1769184265.213539) can0 02807FAA#69E87C8F7FC00104
(1769184265.226530) can0 1200AA7F#1670000041BF15C0
(1769184265.227001) can0 1200AA7F#1670000041BF15C0
(1769184265.227220) can0 02807FAA#69BB7D5B7E680104
(1769184265.227598) can0 02807FAA#69BA7D367E4D0104
(1769184265.262576) can0 1200AA7F#16700000050319C0
(1769184265.263146) can0 02807FAA#69497C847F620104
(1769184265.298978) can0 1200AA7F#16700000050319C0
(1769184265.299539) can0 02807FAA#68D27C907FE10104
(1769184265.310894) can0 1200AA7F#1670000015431CC0
(1769184265.311465) can0 02807FAA#68AB7D477EBB0104
(1769184265.335735) can0 1200AA7F#1670000015431CC0
(1769184265.336294) can0 02807FAA#685C7CEF80400104
(1769184265.348931) can0 1200AA7F#16700000DE7E1FC0
(1769184265.349476) can0 02807FAA#68347C827F3D0104
(1769184265.372751) can0 1200AA7F#16700000DE7E1FC0
(1769184265.373306) can0 02807FAA#67EA7D167D770104
(1769184265.387895) can0 1200AA7F#16700000D1B522C0
(1769184265.388621) can0 02807FAA#67B67CD4805B0104
(1769184265.421563) can0 1200AA7F#16700000D1B522C0
(1769184265.422097) can0 02807FAA#67497CF1802F0104
(1769184265.434054) can0 1200AA7F#167000005AE725C0
(1769184265.434624) can0 02807FAA#67237C837F5C0104
(1769184265.458960) can0 1200AA7F#167000005AE725C0
(1769184265.459530) can0 02807FAA#66D57D117DC50104
(1769184265.472398) can0 1200AA7F#16700000E71229C0
(1769184265.473025) can0 02807FAA#66A77CD580390104
(1769184265.495797) can0 1200AA7F#16700000E71229C0
(1769184265.496272) can0 02807FAA#665E7CCC7FFA0104
(1769184265.512475) can0 1200AA7F#16700000E7372CC0
(1769184265.513140) can0 02807FAA#662A7D2D7DF30104
(1769184265.519207) can0 1200AA7F#16700000E7372CC0
(1769184265.519720) can0 02807FAA#66157CA77ED30104
(1769184265.556800) can0 1200AA7F#16700000C9552FC0
(1769184265.557331) can0 02807FAA#659B7CD480000104
(1769184265.592814) can0 1200AA7F#16700000C9552FC0
(1769184265.593400) can0 02807FAA#652A7CF87FF00104
(1769184265.597151) can0 1200AA7F#16700000F96B32C0
(1769184265.597666) can0 02807FAA#651E7D617E690104
(1769184265.630041) can0 1200AA7F#16700000F96B32C0
(1769184265.630523) can0 02807FAA#64B97D297D660104
(1769184265.642234) can0 1200AA7F#16700000E77935C0
(1769184265.642750) can0 02807FAA#64907D0C7FFA0104
(1769184265.666722) can0 1200AA7F#16700000E77935C0
(1769184265.667244) can0 02807FAA#64487CB07FB50104
(1769184265.680656) can0 1200AA7F#16700000017F38C0
(1769184265.681186) can0 02807FAA#641B7CEA80840104
(1769184265.715694) can0 1200AA7F#16700000017F38C0
(1769184265.716218) can0 02807FAA#63B17D767E6D0104
(1769184265.727028) can0 1200AA7F#16700000B47A3BC0
(1769184265.727577) can0 02807FAA#638E7C877FE50104
(1769184265.763584) can0 1200AA7F#16700000B47A3BC0
(1769184265.764179) can0 02807FAA#63227D117F990104
(1769184265.766641) can0 1200AA7F#167000006E6C3EC0
(1769184265.767202) can0 02807FAA#63187D1B801C0104
(1769184265.802176) can0 1200AA7F#167000006E6C3EC0
(1769184265.802705) can0 02807FAA#62AF7CF180610104
(1769184265.805946) can0 1200AA7F#16700000A05341C0
(1769184265.806506) can0 02807FAA#62A47D5D7EF20104
(1769184265.837838) can0 1200AA7F#16700000A05341C0
(1769184265.838377) can0 02807FAA#62477D927E840104
(1769184265.851855) can0 1200AA7F#16700000B62F44C0
(1769184265.852431) can0 02807FAA#621C7CF5806A0104
(1769184265.887180) can0 1200AA7F#16700000B62F44C0
(1769184265.887699) can0 02807FAA#61B67D287F940104
(1769184265.888924) can0 1200AA7F#167000001B0047C0
(1769184265.889480) can0 02807FAA#61B17D097FD60104
(1769184265.923455) can0 1200AA7F#167000001B0047C0
(1769184265.924022) can0 02807FAA#614C7CE380550104
(1769184265.935681) can0 1200AA7F#1670000044C449C0
(1769184265.936255) can0 02807FAA#612B7D287D9F0104
(1769184265.960191) can0 1200AA7F#1670000044C449C0
(1769184265.960671) can0 02807FAA#60E47D7580D50104
(1769184265.973588) can0 1200AA7F#167000009B7B4CC0
(1769184265.974149) can0 02807FAA#60C07CDF7F8F0104
(1769184266.009076) can0 1200AA7F#167000009B7B4CC0
(1769184266.009616) can0 02807FAA#605C7CF17FEC0104
(1769184266.013583) can0 1200AA7F#1670000090254FC0
(1769184266.014163) can0 02807FAA#604F7D347F610104
(1769184266.046578) can0 1200AA7F#1670000090254FC0
(1769184266.047156) can0 02807FAA#5FF27D367FFE0104
(1769184266.060484) can0 1200AA7F#167000008FC151C0
(1769184266.061096) can0 02807FAA#5FCC7DCF7E7A0104
(1769184266.095945) can0 1200AA7F#167000008FC151C0
(1769184266.096458) can0 02807FAA#5F6E7DD07E760104
(1769184266.097742) can0 1200AA7F#16700000054F54C0
(1769184266.098310) can0 02807FAA#5F6A7D9C7DDF0104
(1769184266.144115) can0 1200AA7F#16700000054F54C0
(1769184266.144630) can0 02807FAA#5EED7D5D7FE00104
(1769184266.147118) can0 1200AA7F#1670000064CD56C0
(1769184266.147662) can0 02807FAA#5EE57DB57FB90104
(1769184266.195771) can0 1200AA7F#16700000183C59C0
(1769184266.196408) can0 02807FAA#5E6B7D8E80520104
(1769184266.197947) can0 1200AA7F#16700000183C59C0
(1769184266.198542) can0 02807FAA#5E667E0880210104
(1769184266.242239) can0 1200AA7F#16700000929A5BC0
(1769184266.242806) can0 02807FAA#5E017DD57E110104
(1769184266.245211) can0 1200AA7F#16700000929A5BC0
(1769184266.245743) can0 02807FAA#5DFA7DD17E300104
(1769184266.290736) can0 1200AA7F#167000003CE85DC0
(1769184266.291275) can0 02807FAA#5D947DD07ED50104
(1769184266.302793) can0 1200AA7F#167000003CE85DC0
(1769184266.303316) can0 02807FAA#5D7A7DD17F790104
(1769184266.340248) can0 1200AA7F#16700000832460C0
(1769184266.340827) can0 02807FAA#5D2A7E1D7FC00104
(1769184266.341152) can0 1200AA7F#16700000832460C0
(1769184266.341673) can0 02807FAA#5D287E087FC00104
(1769184266.379157) can0 1200AA7F#16700000DC4E62C0
(1769184266.379707) can0 02807FAA#5CDD7DD07F160104
(1769184266.380154) can0 1200AA7F#16700000DC4E62C0
(1769184266.380689) can0 02807FAA#5CDB7DD17F6B0104
(1769184266.416562) can0 1200AA7F#16700000B16664C0
(1769184266.417075) can0 02807FAA#5C907DD47DE50104
(1769184266.417338) can0 1200AA7F#16700000B16664C0
(1769184266.417930) can0 02807FAA#5C8E7E027E750104
(1769184266.454961) can0 1200AA7F#167000006F6B66C0
(1769184266.455547) can0 02807FAA#5C3C7E137D7A0104
(1769184266.462227) can0 1200AA7F#167000006F6B66C0
(1769184266.462710) can0 02807FAA#5C2C7DD07F3B0104
(1769184266.512272) can0 1200AA7F#16700000875C68C0
(1769184266.512830) can0 02807FAA#5BBF7E0780760104
(1769184266.514783) can0 1200AA7F#16700000875C68C0
(1769184266.515340) can0 02807FAA#5BBA7E227FE70104
(1769184266.573650) can0 1200AA7F#1670000063396AC0
(1769184266.574116) can0 1200AA7F#1670000063396AC0
(1769184266.574225) can0 02807FAA#5B507E607F550104
(1769184266.574697) can0 02807FAA#5B4F7E5C7F410104
(1769184266.601637) can0 1200AA7F#1670000077016CC0
(1769184266.602924) can0 02807FAA#5B277E987DE20104
(1769184266.609424) can0 1200AA7F#1670000077016CC0
(1769184266.609987) can0 02807FAA#5B1B7E5E7F6E0104
(1769184266.638808) can0 1200AA7F#167000002FB46DC0
(1769184266.639382) can0 02807FAA#5AE67E3D80550104
(1769184266.683011) can0 1200AA7F#167000002FB46DC0
(1769184266.683671) can0 02807FAA#5A947E0A801F0104
(1769184266.685477) can0 1200AA7F#16700000F5506FC0
(1769184266.686032) can0 02807FAA#5A8F7E4080220104
(1769184266.720588) can0 1200AA7F#16700000F5506FC0
(1769184266.721158) can0 02807FAA#5A527E4E80590104
(1769184266.722968) can0 1200AA7F#1670000039D770C0
(1769184266.723512) can0 02807FAA#5A4E7E5E7FDC0104
(1769184266.756086) can0 1200AA7F#1670000039D770C0
(1769184266.756604) can0 02807FAA#5A167E747DDA0104
(1769184266.768658) can0 1200AA7F#16700000714672C0
(1769184266.769215) can0 02807FAA#5A007E497F4C0104
(1769184266.805081) can0 1200AA7F#16700000714672C0
(1769184266.805622) can0 02807FAA#59C77EB17F460104
(1769184266.806950) can0 1200AA7F#16700000019E73C0
(1769184266.807549) can0 02807FAA#59C47EB97E3F0104
(1769184266.841893) can0 1200AA7F#16700000019E73C0
(1769184266.842411) can0 02807FAA#598F7E7A7F8B0104
(1769184266.846678) can0 1200AA7F#1670000057DD74C0
(1769184266.847221) can0 02807FAA#59877E6980C20104
(1769184266.878857) can0 1200AA7F#1670000057DD74C0
(1769184266.879355) can0 02807FAA#595A7E987D840104
(1769184266.892469) can0 1200AA7F#16700000EB0376C0
(1769184266.893023) can0 02807FAA#59467EAE7FAD0104
(1769184266.927514) can0 1200AA7F#16700000EB0376C0
(1769184266.928060) can0 02807FAA#59187EE8803D0104
(1769184266.930182) can0 1200AA7F#16700000271177C0
(1769184266.930714) can0 02807FAA#59157EE57FB00104
(1769184266.964685) can0 1200AA7F#16700000271177C0
(1769184266.965251) can0 02807FAA#58EC7EE67FD90104
(1769184266.976834) can0 1200AA7F#167000006F0478C0
(1769184266.977400) can0 02807FAA#58DD7EE380360104
(1769184267.013062) can0 1200AA7F#167000006F0478C0
(1769184267.013550) can0 02807FAA#58B77F207F2F0104
(1769184267.016627) can0 1200AA7F#167000003FDD78C0
(1769184267.017170) can0 02807FAA#58B47F2E7E620104
(1769184267.053975) can0 1200AA7F#167000003FDD78C0
(1769184267.054517) can0 02807FAA#588F7EFB7F240104
(1769184267.062889) can0 1200AA7F#16700000FF9A79C0
(1769184267.063440) can0 02807FAA#58887F237F160104
(1769184267.098966) can0 1200AA7F#16700000FF9A79C0
(1769184267.099549) can0 02807FAA#58697F247FDD0104
(1769184267.102113) can0 1200AA7F#167000001F3D7AC0
(1769184267.102681) can0 02807FAA#58677F4F80830104
(1769184267.135988) can0 1200AA7F#167000001F3D7AC0
(1769184267.136499) can0 02807FAA#584F7F497E830104
(1769184267.138169) can0 1200AA7F#167000000DC37AC0
(1769184267.138723) can0 02807FAA#584D7F307E770104
(1769184267.172479) can0 1200AA7F#167000000DC37AC0
(1769184267.173030) can0 02807FAA#58327F637FF00104
(1769184267.185007) can0 1200AA7F#16700000312C7BC0
(1769184267.185555) can0 02807FAA#582B7F8380300104
(1769184267.209210) can0 1200AA7F#16700000312C7BC0
(1769184267.209774) can0 02807FAA#581F7F8080630104
(1769184267.224002) can0 1200AA7F#1670000005787BC0
(1769184267.224519) can0 02807FAA#58187F9180820104
(1769184267.258434) can0 1200AA7F#1670000005787BC0
(1769184267.258985) can0 02807FAA#58097FAE7FC90104
(1769184267.271111) can0 1200AA7F#16700000E9A57BC0
(1769184267.271690) can0 02807FAA#58057FC77F870104
(1769184267.306973) can0 1200AA7F#16700000E9A57BC0
(1769184267.307544) can0 02807FAA#57FD7FC77E060104
(1769184267.308782) can0 1200AA7F#167000005AB57BC0
(1769184267.309363) can0 02807FAA#57FC7FC57E820104
(1769184267.343832) can0 1200AA7F#167000005AB57BC0
(1769184267.344408) can0 02807FAA#57F77FFF7DC20104
(1769184267.347012) can0 1200AA7F#16700000FCAB7BC0
(1769184267.347591) can0 02807FAA#57F77FF17E6B0104
(1769184267.381515) can0 1200AA7F#16700000FCAB7BC0
(1769184267.382153) can0 02807FAA#57F67FFF7E250104
(1769184267.393199) can0 1200AA7F#1670000012907BC0
(1769184267.393740) can0 02807FAA#57F680377E3F0104
(1769184267.417024) can0 1200AA7F#1670000012907BC0
(1769184267.417577) can0 02807FAA#57F680357E0E0104
(1769184267.431715) can0 1200AA7F#16700000DF617BC0
(1769184267.432257) can0 02807FAA#57F780377F040104
(1769184267.466355) can0 1200AA7F#16700000DF617BC0
(1769184267.467013) can0 02807FAA#57FB7FFF7EE40104
(1769184267.477915) can0 1200AA7F#16700000A8217BC0
(1769184267.478480) can0 02807FAA#57FC7FFF7F7F0104
(1769184267.515707) can0 1200AA7F#16700000A8217BC0
(1769184267.516064) can0 02807FAA#5802803980670104
(1769184267.517999) can0 1200AA7F#16700000B4CF7AC0
(1769184267.518555) can0 02807FAA#58028035802B0104
(1769184267.554017) can0 1200AA7F#16700000B4CF7AC0
(1769184267.554579) can0 02807FAA#580A803D81800104
(1769184267.556506) can0 1200AA7F#16700000456C7AC0
(1769184267.557059) can0 02807FAA#580B801B80F40104
(1769184267.601789) can0 1200AA7F#16700000456C7AC0
(1769184267.602342) can0 02807FAA#581A805281270104
(1769184267.603228) can0 1200AA7F#16700000A1F779C0
(1769184267.603786) can0 02807FAA#581B804380F90104
(1769184267.638060) can0 1200AA7F#16700000A1F779C0
(1769184267.638608) can0 02807FAA#5826808B81050104
(1769184267.640838) can0 1200AA7F#167000000D7279C0
(1769184267.641423) can0 02807FAA#5828806880610104
(1769184267.674141) can0 1200AA7F#167000000D7279C0
(1769184267.674701) can0 02807FAA#5838809F81880104
(1769184267.686280) can0 1200AA7F#16700000CEDB78C0
(1769184267.686842) can0 02807FAA#583E805480D00104
(1769184267.711075) can0 1200AA7F#16700000CEDB78C0
(1769184267.711619) can0 02807FAA#5849806880070104
(1769184267.724628) can0 1200AA7F#16700000283578C0
(1769184267.725204) can0 02807FAA#585180A07F3F0104
(1769184267.759337) can0 1200AA7F#16700000283578C0
(1769184267.759883) can0 02807FAA#586480A6814D0104
(1769184267.763216) can0 1200AA7F#16700000607E77C0
(1769184267.763776) can0 02807FAA#586780AC820E0104
(1769184267.798192) can0 1200AA7F#16700000607E77C0
(1769184267.798675) can0 02807FAA#587F80A780410104
(1769184267.809489) can0 1200AA7F#16700000BCB776C0
(1769184267.810090) can0 02807FAA#588780AE803E0104
(1769184267.838536) can0 1200AA7F#16700000BCB776C0
(1769184267.839101) can0 02807FAA#589980D480AA0104
(1769184267.847141) can0 1200AA7F#167000007FE175C0
(1769184267.847662) can0 02807FAA#589F80B77FF20104
(1769184267.882689) can0 1200AA7F#167000007FE175C0
(1769184267.883218) can0 02807FAA#58BA80AE81050104
(1769184267.894230) can0 1200AA7F#16700000F0FB74C0
(1769184267.894780) can0 02807FAA#58C280AF81E70104
(1769184267.919025) can0 1200AA7F#16700000F0FB74C0
(1769184267.919560) can0 02807FAA#58D580A780D20104
(1769184267.934113) can0 1200AA7F#16700000530774C0
(1769184267.934677) can0 02807FAA#58E180C6812C0104
(1769184267.968004) can0 1200AA7F#16700000530774C0
(1769184267.968567) can0 02807FAA#58FE80EC80180104
(1769184267.973163) can0 1200AA7F#16700000EA0373C0
(1769184267.973743) can0 02807FAA#590380F07FB70104
(1769184268.017911) can0 1200AA7F#16700000EA0373C0
(1769184268.018462) can0 02807FAA#592C80E281380104
(1769184268.020447) can0 1200AA7F#16700000FFF171C0
(1769184268.020991) can0 02807FAA#592F810680C50104
(1769184268.066317) can0 1200AA7F#16700000D3D170C0
(1769184268.066841) can0 02807FAA#595A80F17F8A0104
(1769184268.067037) can0 1200AA7F#16700000D3D170C0
(1769184268.067600) can0 02807FAA#595B80F17F2E0104
(1769184268.104284) can0 1200AA7F#16700000ACA36FC0
(1769184268.104793) can0 02807FAA#597C8107815F0104
(1769184268.140091) can0 1200AA7F#16700000ACA36FC0
(1769184268.140660) can0 02807FAA#59A3811680C90104
(1769184268.142471) can0 1200AA7F#16700000CE676EC0
(1769184268.143059) can0 02807FAA#59A6811681330104
(1769184268.176642) can0 1200AA7F#16700000CE676EC0
(1769184268.177174) can0 02807FAA#59CE80F3811C0104
(1769184268.180280) can0 1200AA7F#16700000801E6DC0
(1769184268.180817) can0 02807FAA#59D2813B82710104
(1769184268.225091) can0 1200AA7F#16700000801E6DC0
(1769184268.225668) can0 02807FAA#5A0C814D7FFB0104
(1769184268.227506) can0 1200AA7F#1670000004C86BC0
(1769184268.228066) can0 02807FAA#5A0F814E7FBF0104
(1769184268.262716) can0 1200AA7F#1670000004C86BC0
(1769184268.263268) can0 02807FAA#5A37813C81910104
(1769184268.264883) can0 1200AA7F#16700000A1646AC0
(1769184268.265493) can0 02807FAA#5A3A813E81D60104
(1769184268.298686) can0 1200AA7F#16700000A1646AC0
(1769184268.299255) can0 02807FAA#5A668186807D0104
(1769184268.310774) can0 1200AA7F#167000009CF468C0
(1769184268.311321) can0 02807FAA#5A77814F7F690104
(1769184268.347736) can0 1200AA7F#167000009CF468C0
(1769184268.348284) can0 02807FAA#5AA681727FF50104
(1769184268.350249) can0 1200AA7F#16700000387867C0
(1769184268.350806) can0 02807FAA#5AA9814E80860104
(1769184268.384896) can0 1200AA7F#16700000387867C0
(1769184268.385439) can0 02807FAA#5AD9814B80340104
(1769184268.387829) can0 1200AA7F#16700000BBEF65C0
(1769184268.388381) can0 02807FAA#5ADD813C80F30104
(1769184268.421906) can0 1200AA7F#16700000BBEF65C0
(1769184268.422447) can0 02807FAA#5B0E8186813E0104
(1769184268.434012) can0 1200AA7F#16700000695B64C0
(1769184268.434589) can0 02807FAA#5B20817F80A80104
(1769184268.469733) can0 1200AA7F#16700000695B64C0
(1769184268.470322) can0 02807FAA#5B5481A67FF60104
(1769184268.472606) can0 1200AA7F#1670000088BB62C0
(1769184268.473160) can0 02807FAA#5B58814D80510104
(1769184268.507179) can0 1200AA7F#1670000088BB62C0
(1769184268.507697) can0 02807FAA#5B8E817E7F980104
(1769184268.519575) can0 1200AA7F#167000005C1061C0
(1769184268.520153) can0 02807FAA#5B9F816B817A0104
(1769184268.555221) can0 1200AA7F#167000005C1061C0
(1769184268.555768) can0 02807FAA#5BD4818680B40104
(1769184268.558415) can0 1200AA7F#167000002A5A5FC0
(1769184268.559030) can0 02807FAA#5BDA81A87FA80104
(1769184268.592721) can0 1200AA7F#167000002A5A5FC0
(1769184268.593249) can0 02807FAA#5C0F81BE80610104
(1769184268.596046) can0 1200AA7F#1670000037995DC0
(1769184268.596591) can0 02807FAA#5C1481A080520104
(1769184268.629783) can0 1200AA7F#1670000037995DC0
(1769184268.630304) can0 02807FAA#5C4D814E81EC0104
(1769184268.642045) can0 1200AA7F#16700000C8CD5BC0
(1769184268.642591) can0 02807FAA#5C6181BA80FC0104
(1769184268.678405) can0 1200AA7F#16700000C8CD5BC0
(1769184268.678955) can0 02807FAA#5C9F81BA7FF40104
(1769184268.680303) can0 1200AA7F#1670000021F859C0
(1769184268.680862) can0 02807FAA#5CA1816F80700104
(1769184268.715354) can0 1200AA7F#1670000021F859C0
(1769184268.715841) can0 02807FAA#5CDE81D380DF0104
(1769184268.727420) can0 1200AA7F#16700000871858C0
(1769184268.728009) can0 02807FAA#5CF581BC7E9D0104
(1769184268.751955) can0 1200AA7F#16700000871858C0
(1769184268.752504) can0 02807FAA#5D1B819F81AF0104
(1769184268.765329) can0 1200AA7F#16700000402F56C0
(1769184268.765835) can0 02807FAA#5D3381BE80DB0104
(1769184268.801148) can0 1200AA7F#16700000402F56C0
(1769184268.801728) can0 02807FAA#5D7381BE80A40104
(1769184268.805285) can0 1200AA7F#16700000903C54C0
(1769184268.805866) can0 02807FAA#5D7B81D480E70104
(1769184268.838052) can0 1200AA7F#16700000903C54C0
(1769184268.838607) can0 02807FAA#5DB8818C81140104
(1769184268.850417) can0 1200AA7F#16700000BB4052C0
(1769184268.851038) can0 02807FAA#5DCE81DA81A90104
(1769184268.874329) can0 1200AA7F#16700000BB4052C0
(1769184268.874898) can0 02807FAA#5DFB81F57FE20104
(1769184268.889494) can0 1200AA7F#16700000093C50C0
(1769184268.890080) can0 02807FAA#5E1781B681770104
(1769184268.924336) can0 1200AA7F#16700000093C50C0
(1769184268.924927) can0 02807FAA#5E5B822C7F800104
(1769184268.937690) can0 1200AA7F#16700000BA2E4EC0
(1769184268.938212) can0 02807FAA#5E7381BE81970104
(1769184268.972352) can0 1200AA7F#16700000BA2E4EC0
(1769184268.972902) can0 02807FAA#5EB381E980480104
(1769184268.974389) can0 1200AA7F#1670000016194CC0
(1769184268.974978) can0 02807FAA#5EB782037F6F0104
(1769184269.009528) can0 1200AA7F#1670000016194CC0
(1769184269.010067) can0 02807FAA#5EFB81EF80C90104
(1769184269.021348) can0 1200AA7F#1670000061FB49C0
(1769184269.021848) can0 02807FAA#5F1382047F130104
(1769184269.061253) can0 1200AA7F#16700000E1D547C0
(1769184269.061857) can0 02807FAA#5F5F81EF81790104
(1769184269.062830) can0 1200AA7F#16700000E1D547C0
(1769184269.063414) can0 02807FAA#5F62820381520104
(1769184269.097896) can0 1200AA7F#16700000D8A845C0
(1769184269.098439) can0 02807FAA#5FA982277FDC0104
(1769184269.143249) can0 1200AA7F#16700000D8A845C0
(1769184269.143778) can0 02807FAA#6008822E80AE0104
(1769184269.145061) can0 1200AA7F#167000008F7443C0
(1769184269.145644) can0 02807FAA#600C822D80780104
(1769184269.180053) can0 1200AA7F#167000008F7443C0
(1769184269.180606) can0 02807FAA#60548204801A0104
(1769184269.183052) can0 1200AA7F#16700000463941C0
(1769184269.183605) can0 02807FAA#605B82007FBA0104
(1769184269.217446) can0 1200AA7F#16700000463941C0
(1769184269.218054) can0 02807FAA#60A2822D82510104
(1769184269.221531) can0 1200AA7F#1670000046F73EC0
(1769184269.222100) can0 02807FAA#60AB820481580104
(1769184269.267700) can0 1200AA7F#1670000046F73EC0
(1769184269.268230) can0 02807FAA#611281F681090104
(1769184269.268845) can0 1200AA7F#16700000D3AE3CC0
(1769184269.269437) can0 02807FAA#6115823481130104
(1769184269.302793) can0 1200AA7F#16700000D3AE3CC0
(1769184269.303345) can0 02807FAA#615D825F81840104
(1769184269.305573) can0 1200AA7F#167000002F603AC0
(1769184269.306193) can0 02807FAA#6163822E81290104
(1769184269.352687) can0 1200AA7F#167000002F603AC0
(1769184269.353267) can0 02807FAA#61CC8264805B0104
(1769184269.357070) can0 1200AA7F#16700000A10B38C0
(1769184269.357634) can0 02807FAA#61D681E8805B0104
(1769184269.401932) can0 1200AA7F#167000006FB135C0
(1769184269.402487) can0 02807FAA#6234822E810A0104
(1769184269.402636) can0 1200AA7F#167000006FB135C0
(1769184269.403190) can0 02807FAA#6236822D80AF0104
(1769184269.437741) can0 1200AA7F#16700000DB5133C0
(1769184269.438296) can0 02807FAA#627F81FD80A00104
(1769184269.474548) can0 1200AA7F#16700000DB5133C0
(1769184269.475086) can0 02807FAA#62D0822F80920104
(1769184269.477690) can0 1200AA7F#167000002BED30C0
(1769184269.478271) can0 02807FAA#62D7822E805F0104
(1769184269.511593) can0 1200AA7F#167000002BED30C0
(1769184269.512154) can0 02807FAA#6325828F808F0104
(1769184269.513946) can0 1200AA7F#16700000A5832EC0
(1769184269.514504) can0 02807FAA#632B8269808E0104
(1769184269.560695) can0 1200AA7F#16700000A5832EC0
(1769184269.561251) can0 02807FAA#639C8296816B0104
(1769184269.564116) can0 1200AA7F#167000008C152CC0
(1769184269.564596) can0 02807FAA#63A482817FE60104
(1769184269.609002) can0 1200AA7F#1670000028A329C0
(1769184269.609586) can0 02807FAA#640D82657EC00104
(1769184269.610872) can0 1200AA7F#1670000028A329C0
(1769184269.611392) can0 02807FAA#6411822E7E8D0104
(1769184269.657478) can0 1200AA7F#16700000B92C27C0
(1769184269.657853) can0 1200AA7F#16700000B92C27C0
(1769184269.658041) can0 02807FAA#647881E980D60104
(1769184269.658419) can0 02807FAA#647981BE81280104
(1769184269.687794) can0 1200AA7F#1670000087B224C0
(1769184269.688342) can0 02807FAA#64B9826280250104
(1769184269.696079) can0 1200AA7F#1670000087B224C0
(1769184269.696655) can0 02807FAA#64CD822E7EC10104
(1769184269.731759) can0 1200AA7F#16700000D73422C0
(1769184269.732285) can0 02807FAA#6521825D7F330104
(1769184269.734209) can0 1200AA7F#16700000D73422C0
(1769184269.734798) can0 02807FAA#6527822E7F940104
(1769184269.781574) can0 1200AA7F#16700000EFB31FC0
(1769184269.782119) can0 02807FAA#6598825781EB0104
(1769184269.784150) can0 1200AA7F#16700000EFB31FC0
(1769184269.784704) can0 02807FAA#659E8265811C0104
(1769184269.819907) can0 1200AA7F#1670000010301DC0
(1769184269.820467) can0 02807FAA#65F0822E81CA0104
(1769184269.821609) can0 1200AA7F#1670000010301DC0
(1769184269.822199) can0 02807FAA#65F4825F81BF0104
(1769184269.867104) can0 1200AA7F#1670000080A91AC0
(1769184269.867669) can0 02807FAA#666082AB80980104
(1769184269.869635) can0 1200AA7F#1670000080A91AC0
(1769184269.870201) can0 02807FAA#6666825F802C0104
(1769184269.905211) can0 1200AA7F#16700000842018C0
(1769184269.905746) can0 02807FAA#66B9826580BD0104
(1769184269.907187) can0 1200AA7F#16700000842018C0
(1769184269.907759) can0 02807FAA#66BE826880950104
(1769184269.943345) can0 1200AA7F#16700000649515C0
(1769184269.943845) can0 02807FAA#6715829A80BD0104
(1769184269.952430) can0 1200AA7F#16700000649515C0
(1769184269.952905) can0 02807FAA#672B827881060104
(1769184269.989575) can0 1200AA7F#16700000600813C0
(1769184269.990206) can0 02807FAA#6788826880180104
(1769184269.990274) can0 1200AA7F#16700000600813C0
(1769184269.990822) can0 02807FAA#678A8265805C0104
(1769184270.051109) can0 1200AA7F#16700000BF7910C0
(1769184270.051653) can0 02807FAA#681C822E81360104
(1769184270.052655) can0 1200AA7F#16700000BF7910C0
(1769184270.053189) can0 02807FAA#681F822E80F20104
(1769184270.090139) can0 1200AA7F#16700000C5E90DC0
(1769184270.090569) can0 1200AA7F#16700000C5E90DC0
(1769184270.090667) can0 02807FAA#686E81F682150104
(1769184270.091160) can0 02807FAA#686F81F6821B0104
(1769184270.124465) can0 1200AA7F#16700000BB580BC0
(1769184270.124974) can0 02807FAA#68BA81F780B70104
(1769184270.125697) can0 1200AA7F#16700000BB580BC0
(1769184270.126247) can0 02807FAA#68BD821181010104
(1769184270.162286) can0 1200AA7F#16700000E1C608C0
(1769184270.162819) can0 02807FAA#6915822D80320104
(1769184270.165085) can0 1200AA7F#16700000E1C608C0
(1769184270.165654) can0 02807FAA#691B823B81B80104
(1769184270.200398) can0 1200AA7F#167000007D3406C0
(1769184270.200936) can0 02807FAA#6976822E81640104
(1769184270.201918) can0 1200AA7F#167000007D3406C0
(1769184270.202521) can0 02807FAA#6979826281F10104
(1769184270.249878) can0 1200AA7F#16700000D5A103C0
(1769184270.250400) can0 02807FAA#69F7829D802D0104
(1769184270.258138) can0 1200AA7F#16700000D5A103C0
(1769184270.258668) can0 02807FAA#6A0B829A81200104
(1769184270.287539) can0 1200AA7F#167000002B0F01C0
(1769184270.288111) can0 02807FAA#6A55826D7FE40104
(1769184270.295191) can0 1200AA7F#167000002B0F01C0
(1769184270.295762) can0 02807FAA#6A688272802B0104
(1769184270.331580) can0 1200AA7F#167000008AF9FCBF
(1769184270.332088) can0 02807FAA#6AC582977FCE0104
(1769184270.332515) can0 1200AA7F#167000008AF9FCBF
(1769184270.333079) can0 02807FAA#6AC8828F7FD80104
(1769184270.379719) can0 1200AA7F#16700000DAD5F7BF
(1769184270.380276) can0 02807FAA#6B3D81F6814D0104
(1769184270.381394) can0 1200AA7F#16700000DAD5F7BF
(1769184270.381962) can0 02807FAA#6B41820381A40104
(1769184270.409479) can0 1200AA7F#16700000C2B3F2BF
(1769184270.410088) can0 02807FAA#6B8582A27EA10104
(1769184270.419790) can0 1200AA7F#16700000C2B3F2BF
(1769184270.420337) can0 02807FAA#6B9C8212822A0104
(1769184270.457500) can0 1200AA7F#16700000CE93EDBF
(1769184270.458095) can0 02807FAA#6BFD8249823A0104
(1769184270.458164) can0 1200AA7F#16700000CE93EDBF
(1769184270.458679) can0 02807FAA#6BFF826582410104
(1769184270.490685) can0 1200AA7F#167000009276E8BF
(1769184270.491265) can0 02807FAA#6C52823181A80104
(1769184270.491611) can0 1200AA7F#167000009276E8BF
(1769184270.492152) can0 02807FAA#6C54822E81420104
(1769184270.529591) can0 1200AA7F#167000008A5CE3BF
(1769184270.530150) can0 02807FAA#6CB6827381CC0104
(1769184270.531088) can0 1200AA7F#167000008A5CE3BF
(1769184270.531670) can0 02807FAA#6CBA828281760104
(1769184270.566605) can0 1200AA7F#167000004246DEBF
(1769184270.567096) can0 02807FAA#6D1982C081040104
(1769184270.567652) can0 1200AA7F#167000004246DEBF
(1769184270.568239) can0 02807FAA#6D1C82DD80980104
(1769184270.605757) can0 1200AA7F#167000005234D9BF
(1769184270.606308) can0 02807FAA#6D8382D580E60104
(1769184270.614568) can0 1200AA7F#167000005234D9BF
(1769184270.615167) can0 02807FAA#6D9B82D481030104
(1769184270.653966) can0 1200AA7F#167000003227D4BF
(1769184270.654487) can0 02807FAA#6E0782BB7E950104
(1769184270.661849) can0 1200AA7F#167000003227D4BF
(1769184270.662409) can0 02807FAA#6E19822E82830104
(1769184270.689773) can0 1200AA7F#16700000721FCFBF
(1769184270.690229) can0 02807FAA#6E6182737F1E0104
(1769184270.698112) can0 1200AA7F#16700000721FCFBF
(1769184270.698690) can0 02807FAA#6E75826581DC0104
(1769184270.735903) can0 1200AA7F#167000009E1DCABF
(1769184270.736421) can0 02807FAA#6ED5826482140104
(1769184270.736967) can0 1200AA7F#167000009E1DCABF
(1769184270.737527) can0 02807FAA#6ED8826B82050104
(1769184270.774711) can0 1200AA7F#167000003F22C5BF
(1769184270.775255) can0 02807FAA#6F368296817F0104
(1769184270.776971) can0 1200AA7F#167000003F22C5BF
(1769184270.777536) can0 02807FAA#6F3C828080B10104
(1769184270.813109) can0 1200AA7F#16700000DA2DC0BF
(1769184270.813590) can0 02807FAA#6F96828181EC0104
(1769184270.822009) can0 1200AA7F#16700000DA2DC0BF
(1769184270.822552) can0 02807FAA#6FAD826981D70104
(1769184270.860920) can0 1200AA7F#16700000FF40BBBF
(1769184270.861429) can0 02807FAA#700F829E810D0104
(1769184270.862320) can0 1200AA7F#16700000FF40BBBF
(1769184270.862877) can0 02807FAA#701382A480AC0104
(1769184270.910145) can0 1200AA7F#16700000325CB6BF
(1769184270.910675) can0 02807FAA#708882627F970104
(1769184270.911382) can0 1200AA7F#16700000325CB6BF
(1769184270.911928) can0 02807FAA#708B822E7F980104
(1769184270.945008) can0 1200AA7F#167000000B80B1BF
(1769184270.945536) can0 02807FAA#70D6824A7F3F0104
(1769184270.948393) can0 1200AA7F#167000000B80B1BF
(1769184270.948962) can0 02807FAA#70DE82647FB00104
(1769184270.985159) can0 1200AA7F#16700000F7ACACBF
(1769184270.985693) can0 02807FAA#7135829B7F070104
(1769184270.992640) can0 1200AA7F#16700000F7ACACBF
(1769184270.993181) can0 02807FAA#7146822D81DE0104
(1769184271.030620) can0 1200AA7F#167000009AE3A7BF
(1769184271.031205) can0 02807FAA#71A3821281860104
(1769184271.033007) can0 1200AA7F#167000009AE3A7BF
(1769184271.033569) can0 02807FAA#71A881F6825A0104
(1769184271.078014) can0 1200AA7F#167000007224A3BF
(1769184271.078525) can0 02807FAA#7211826581420104
(1769184271.078769) can0 1200AA7F#167000007224A3BF
(1769184271.079318) can0 02807FAA#7213826580BB0104
(1769184271.119154) can0 1200AA7F#167000000A709EBF
(1769184271.119668) can0 02807FAA#726E822E80DB0104
(1769184271.126917) can0 1200AA7F#167000000A709EBF
(1769184271.127483) can0 02807FAA#7280824980E30104
(1769184271.166756) can0 1200AA7F#16700000F3C699BF
(1769184271.167277) can0 02807FAA#72D9821280010104
(1769184271.168118) can0 1200AA7F#16700000F3C699BF
(1769184271.168675) can0 02807FAA#72DC822D80F40104
(1769184271.205687) can0 1200AA7F#16700000AA2995BF
(1769184271.206234) can0 02807FAA#732E822E80860104
(1769184271.212796) can0 1200AA7F#16700000AA2995BF
(1769184271.213337) can0 02807FAA#733D8227812E0104
(1769184271.249245) can0 1200AA7F#16700000CA9890BF
(1769184271.249746) can0 1200AA7F#16700000CA9890BF
(1769184271.249828) can0 02807FAA#738F825780470104
(1769184271.250278) can0 02807FAA#73908220806B0104
(1769184271.278507) can0 1200AA7F#16700000C2148CBF
(1769184271.279021) can0 02807FAA#73CF822A81D80104
(1769184271.279284) can0 1200AA7F#16700000C2148CBF
(1769184271.279887) can0 02807FAA#73D1826282010104
(1769184271.326335) can0 1200AA7F#16700000329E87BF
(1769184271.326899) can0 02807FAA#744282677FF70104
(1769184271.327222) can0 1200AA7F#16700000329E87BF
(1769184271.327719) can0 02807FAA#744482497FE10104
(1769184271.361756) can0 1200AA7F#16700000A23583BF
(1769184271.362279) can0 02807FAA#7492824A81640104
(1769184271.362926) can0 1200AA7F#16700000A23583BF
(1769184271.363405) can0 02807FAA#7495827A80D70104
(1769184271.409517) can0 1200AA7F#167000001DB77DBF
(1769184271.410052) can0 02807FAA#7501822E80550104
(1769184271.410145) can0 1200AA7F#167000001DB77DBF
(1769184271.410673) can0 02807FAA#7503823C80710104
(1769184271.448372) can0 1200AA7F#16700000162175BF
(1769184271.448945) can0 02807FAA#7557822D81620104
(1769184271.449534) can0 1200AA7F#16700000162175BF
(1769184271.450165) can0 02807FAA#755A820F81100104
(1769184271.496034) can0 1200AA7F#1670000056AA6CBF
(1769184271.496606) can0 02807FAA#75BF820B80360104
(1769184271.497832) can0 1200AA7F#1670000056AA6CBF
(1769184271.498394) can0 02807FAA#75C3822D7FF70104
(1769184271.534046) can0 1200AA7F#16700000C65364BF
(1769184271.534598) can0 02807FAA#760E8211811B0104
(1769184271.535624) can0 1200AA7F#16700000C65364BF
(1769184271.536177) can0 02807FAA#761181F881000104
(1769184271.580789) can0 1200AA7F#167000007D1E5CBF
(1769184271.581340) can0 02807FAA#767081F6803A0104
(1769184271.582794) can0 1200AA7F#167000007D1E5CBF
(1769184271.583316) can0 02807FAA#767481FD80740104
(1769184271.620407) can0 1200AA7F#16700000A40B54BF
(1769184271.620941) can0 02807FAA#76BF81FD81400104
(1769184271.621811) can0 1200AA7F#16700000A40B54BF
(1769184271.622387) can0 02807FAA#76C281F680D40104
(1769184271.656930) can0 1200AA7F#16700000641C4CBF
(1769184271.657478) can0 02807FAA#770881F680D30104
(1769184271.658437) can0 1200AA7F#16700000641C4CBF
(1769184271.659045) can0 02807FAA#770B81F780E70104
(1769184271.693962) can0 1200AA7F#16700000A55144BF
(1769184271.694542) can0 02807FAA#775581F2821E0104
(1769184271.694833) can0 1200AA7F#16700000A55144BF
(1769184271.695406) can0 02807FAA#775781E481B80104
(1769184271.739487) can0 1200AA7F#1670000085AC3CBF
(1769184271.740025) can0 02807FAA#77B481F481960104
(1769184271.741049) can0 1200AA7F#1670000085AC3CBF
(1769184271.741617) can0 02807FAA#77B881F481760104
(1769184271.768904) can0 1200AA7F#167000001C2E35BF
(1769184271.769475) can0 02807FAA#77F181FE7F740104
(1769184271.778495) can0 1200AA7F#167000001C2E35BF
(1769184271.779033) can0 02807FAA#780481AD80AF0104
(1769184271.817968) can0 1200AA7F#1670000075D72DBF
(1769184271.818534) can0 02807FAA#785881E87FA80104
(1769184271.825028) can0 1200AA7F#1670000075D72DBF
(1769184271.825574) can0 02807FAA#786481C3816D0104
(1769184271.866707) can0 1200AA7F#16700000C4A926BF
(1769184271.867232) can0 02807FAA#78B681B67F8D0104
(1769184271.877171) can0 1200AA7F#16700000C4A926BF
(1769184271.877720) can0 02807FAA#78C681DB82000104
(1769184271.913284) can0 1200AA7F#16700000F5A51FBF
(1769184271.913819) can0 02807FAA#790681C57F810104
(1769184271.914207) can0 1200AA7F#16700000F5A51FBF
(1769184271.914714) can0 02807FAA#790881937F380104
(1769184271.959405) can0 1200AA7F#1670000025CD18BF
(1769184271.959937) can0 02807FAA#795181BA802B0104
(1769184271.961044) can0 1200AA7F#1670000025CD18BF
(1769184271.961586) can0 02807FAA#795481C37FD30104
(1769184271.998928) can0 1200AA7F#167000007D2012BF
(1769184271.999521) can0 02807FAA#798F81B880A20104
(1769184271.999648) can0 1200AA7F#167000007D2012BF
(1769184272.000279) can0 02807FAA#7991818680630104
(1769184272.035769) can0 1200AA7F#16700000F4A00BBF
(1769184272.036348) can0 02807FAA#79CC818381C30104
(1769184272.045936) can0 1200AA7F#16700000F4A00BBF
(1769184272.046461) can0 02807FAA#79DC81AD80F90104
(1769184272.097710) can0 1200AA7F#16700000AD4F05BF
(1769184272.098232) can0 02807FAA#7A32816E81D40104
(1769184272.099310) can0 1200AA7F#16700000AD4F05BF
(1769184272.099872) can0 02807FAA#7A34815681E50104
(1769184272.133877) can0 1200AA7F#167000008A5BFEBE
(1769184272.134456) can0 02807FAA#7A638196804D0104
(1769184272.135843) can0 1200AA7F#167000008A5BFEBE
(1769184272.136368) can0 02807FAA#7A6681667FAF0104
(1769184272.181751) can0 1200AA7F#167000006B78F2BE
(1769184272.182305) can0 02807FAA#7AA981857FEB0104
(1769184272.183420) can0 1200AA7F#167000006B78F2BE
(1769184272.183942) can0 02807FAA#7AAB81477FFD0104
(1769184272.229259) can0 1200AA7F#167000002AF8E6BE
(1769184272.229813) can0 02807FAA#7AEC817181450104
(1769184272.229921) can0 1200AA7F#167000002AF8E6BE
(1769184272.230456) can0 02807FAA#7AED814F810F0104
(1769184272.267612) can0 1200AA7F#167000000ADDDBBE
(1769184272.268185) can0 02807FAA#7B1F818680D90104
(1769184272.302969) can0 1200AA7F#167000000ADDDBBE
(1769184272.303509) can0 02807FAA#7B50816E80630104
(1769184272.305592) can0 1200AA7F#167000003A29D1BE
(1769184272.306084) can0 02807FAA#7B54816A80140104
(1769184272.351632) can0 1200AA7F#167000003A29D1BE
(1769184272.352240) can0 02807FAA#7B95811881470104
(1769184272.356407) can0 1200AA7F#16700000CADEC6BE
(1769184272.356967) can0 02807FAA#7B9B814081C00104
(1769184272.388749) can0 1200AA7F#16700000CADEC6BE
(1769184272.389263) can0 02807FAA#7BC4812981010104
(1769184272.390620) can0 1200AA7F#16700000DAFFBCBE
(1769184272.391176) can0 02807FAA#7BC7813B818B0104
(1769184272.429187) can0 1200AA7F#16700000DAFFBCBE
(1769184272.429725) can0 02807FAA#7BF98150814A0104
(1769184272.438455) can0 1200AA7F#167000009A8EB3BE
(1769184272.439001) can0 02807FAA#7C06814080DB0104
(1769184272.474458) can0 1200AA7F#167000009A8EB3BE
(1769184272.474999) can0 02807FAA#7C3281407F7B0104
(1769184272.478298) can0 1200AA7F#167000004A8DAABE
(1769184272.478803) can0 02807FAA#7C3681287F6D0104
(1769184272.522599) can0 1200AA7F#16700000EAFDA1BE
(1769184272.523172) can0 02807FAA#7C6A813A80AD0104
(1769184272.523544) can0 1200AA7F#16700000EAFDA1BE
(1769184272.524192) can0 02807FAA#7C6B811580B50104
(1769184272.561596) can0 1200AA7F#16700000AAE299BE
(1769184272.562270) can0 02807FAA#7C9581297FA20104
(1769184272.596173) can0 1200AA7F#16700000AAE299BE
(1769184272.596695) can0 02807FAA#7CB9812980F00104
(1769184272.598907) can0 1200AA7F#16700000BB3D92BE
(1769184272.599503) can0 02807FAA#7CBD8119804D0104
(1769184272.637407) can0 1200AA7F#16700000BB3D92BE
(1769184272.637929) can0 02807FAA#7CE981167ED20104
(1769184272.646501) can0 1200AA7F#167000001A118BBE
(1769184272.647085) can0 02807FAA#7CF280FB7EED0104
(1769184272.682443) can0 1200AA7F#167000001A118BBE
(1769184272.683003) can0 02807FAA#7D11810881B00104
(1769184272.686197) can0 1200AA7F#167000005A5F84BE
(1769184272.686784) can0 02807FAA#7D1480C181020104
(1769184272.734238) can0 1200AA7F#1670000055547CBE
(1769184272.734706) can0 02807FAA#7D4080DF7FEF0104
(1769184272.735167) can0 1200AA7F#1670000055547CBE
(1769184272.735720) can0 02807FAA#7D4180DD7FAB0104
(1769184272.841031) can0 1200AA7F#16700000D5E770BE
(1769184272.841541) can0 1200AA7F#16700000D5E770BE
(1769184272.841592) can0 02807FAA#7D79803780BB0104
(1769184272.842167) can0 02807FAA#7D797FFF80F30104
(1769184272.868261) can0 1200AA7F#16700000947D66BE
(1769184272.868784) can0 02807FAA#7D7D805380DB0104
(1769184272.870035) can0 1200AA7F#16700000947D66BE
(1769184272.870605) can0 02807FAA#7D7D803081530104
(1769184272.905585) can0 1200AA7F#1670000094195DBE
(1769184272.906181) can0 02807FAA#7D9180D580280104
(1769184272.906322) can0 1200AA7F#1670000094195DBE
(1769184272.906856) can0 02807FAA#7D9280CA80440104
(1769184272.942066) can0 1200AA7F#1670000054C054BE
(1769184272.942620) can0 02807FAA#7DAF80A47FA90104
(1769184272.943584) can0 1200AA7F#1670000054C054BE
(1769184272.944175) can0 02807FAA#7DB0809F806C0104
(1769184272.990802) can0 1200AA7F#1670000014764DBE
(1769184272.991267) can0 02807FAA#7DD0809680E20104
(1769184273.000198) can0 1200AA7F#1670000014764DBE
(1769184273.000750) can0 02807FAA#7DD5806F80DA0104
(1769184273.028983) can0 1200AA7F#16700000363F47BE
(1769184273.029505) can0 02807FAA#7DE0806F818B0104
(1769184273.029951) can0 1200AA7F#16700000363F47BE
(1769184273.030526) can0 02807FAA#7DE1806E81860104
(1769184273.078248) can0 1200AA7F#16700000F51F42BE
(1769184273.078770) can0 02807FAA#7DFA80617F5A0104
(1769184273.086365) can0 1200AA7F#16700000F51F42BE
(1769184273.086890) can0 02807FAA#7DFC80417F830104
(1769184273.115333) can0 1200AA7F#16700000951C3EBE
(1769184273.115868) can0 02807FAA#7E0680367F4F0104
(1769184273.122615) can0 1200AA7F#16700000951C3EBE
(1769184273.123220) can0 02807FAA#7E0880447FFD0104
(1769184273.159103) can0 1200AA7F#1670000074393BBE
(1769184273.159627) can0 02807FAA#7E13800D80E60104
(1769184273.160028) can0 1200AA7F#1670000074393BBE
(1769184273.160600) can0 02807FAA#7E13803880E00104
(1769184273.196984) can0 1200AA7F#16700000D47A39BE
(1769184273.197539) can0 02807FAA#7E1B805480B10104
(1769184273.198715) can0 1200AA7F#16700000D47A39BE
(1769184273.199246) can0 02807FAA#7E1C803780EE0104
(1769184273.234813) can0 1200AA7F#16700000D5E438BE
(1769184273.235370) can0 02807FAA#7E227FFF81020104
(1769184273.236011) can0 1200AA7F#16700000D5E438BE
(1769184273.236491) can0 02807FAA#7E227FFF81610104
(1769184273.274515) can0 1200AA7F#16700000D5E438BE
(1769184273.275046) can0 02807FAA#7E267FC980E30104
(1769184273.318732) can0 1200AA7F#16700000B5DB39BE
(1769184273.319318) can0 02807FAA#7E287FFF80B20104
(1769184273.320519) can0 1200AA7F#16700000B5DB39BE
(1769184273.321075) can0 02807FAA#7E287FFF81470104
(1769184273.355473) can0 1200AA7F#1670000034BA3CBE
(1769184273.355978) can0 02807FAA#7E277FFF803B0104
(1769184273.356735) can0 1200AA7F#1670000034BA3CBE
(1769184273.357347) can0 02807FAA#7E277FFF80D10104
(1769184273.394298) can0 1200AA7F#16700000347741BE
(1769184273.394808) can0 02807FAA#7E237FCE7F890104
(1769184273.444407) can0 1200AA7F#16700000B40948BE
(1769184273.444981) can0 02807FAA#7E197FC980280104
(1769184273.445353) can0 1200AA7F#16700000B40948BE
(1769184273.445935) can0 02807FAA#7E197FD5803F0104
(1769184273.490223) can0 1200AA7F#16700000746850BE
(1769184273.490770) can0 02807FAA#7E0D7FBB7F7F0104
(1769184273.491211) can0 1200AA7F#16700000746850BE
(1769184273.491735) can0 02807FAA#7E0D7F927F680104
(1769184273.529924) can0 1200AA7F#16700000548A5ABE
(1769184273.530464) can0 02807FAA#7E007F9E7E380104
(1769184273.531558) can0 1200AA7F#16700000548A5ABE
(1769184273.532102) can0 02807FAA#7DFF7F8F7DA80104
(1769184273.579944) can0 1200AA7F#16700000556666BE
(1769184273.580518) can0 02807FAA#7DE37F73802F0104
(1769184273.588380) can0 1200AA7F#16700000556666BE
(1769184273.588955) can0 02807FAA#7DDF7F74806A0104
(1769184273.617814) can0 1200AA7F#1670000054F373BE
(1769184273.618378) can0 02807FAA#7DD17F887F5C0104
(1769184273.625312) can0 1200AA7F#1670000054F373BE
(1769184273.625874) can0 02807FAA#7DCD7F5F7FF00104
